schlecht
--------
```
 (2017-04-21 21:43:00.178155)  can0  TX - -  00040300   [6]  7D FC 3A 80 00 0C         '}.:...'
 (2017-04-21 21:43:00.376561)  can0  RX - -  0005533C   [6]  7D FC 3A 80 00 0C         '}.:...'
 (2017-04-21 21:43:00.379416)  can0  TX - -  00060300   [6]  7D FC 3A 80 00 0C         '}.:...'
 (2017-04-21 21:43:00.480444)  can0  RX - -  0007533C   [6]  7D FC 3A 80 00 00         '}.:...'
```
gut
---
ohne Last
```
 (2017-04-23 07:55:25.772631)  can0  TX - -  00040300   [6]  7D FC 3A 80 00 0C         '}.:...'
 (2017-04-23 07:55:25.982274)  can0  RX - -  0005533C   [6]  7D FC 3A 80 00 0C         '}.:...'
 (2017-04-23 07:55:25.988916)  can0  TX - -  00060300   [6]  7D FC 3A 80 00 0C         '}.:...'
 (2017-04-23 07:55:26.048681)  can0  RX - -  0007533C   [7]  7D FC 3A 80 00 0C CB      '}.:....'
```
mit Last (100 Ohm -> ca. 0,2A)
```
 (2017-04-23 07:51:35.286170)  can0  TX - -  00040300   [6]  7D FC 3A 80 00 0C         '}.:...'
 (2017-04-23 07:51:35.499721)  can0  RX - -  0005533C   [6]  7D FC 3A 80 00 0C         '}.:...'
 (2017-04-23 07:51:35.503698)  can0  TX - -  00060300   [6]  7D FC 3A 80 00 0C         '}.:...'
 (2017-04-23 07:51:35.566127)  can0  RX - -  0007533C   [7]  7D FC 3A 80 00 0C FF      '}.:....'
```
ASK Verh&auml;ltnis 255

Kontrolle mit Gleisbox:
```
 (2017-04-23 07:22:42.849647)  can0  TX - -  00040300   [6]  7D FC 3A 80 00 0C         '}.:...'
 (2017-04-23 07:22:43.049999)  can0  RX - -  0005533C   [6]  7D FC 3A 80 00 0C         '}.:...'
 (2017-04-23 07:22:43.062035)  can0  TX - -  00060300   [6]  7D FC 3A 80 00 0C         '}.:...'
 (2017-04-23 07:22:43.116423)  can0  RX - -  0007533C   [7]  7D FC 3A 80 00 0C FF      '}.:....'
```


MS2 sucht und findet Lok
```
 (2017-04-24 19:55:30.145303)  can0  RX - -  0000E72C   [7]  00 00 00 00 09 00 09      '.......'
 (2017-04-24 19:55:30.145856)  can0  RX - -  0001533C   [7]  00 00 00 00 09 00 09      '.......'
 (2017-04-24 19:55:30.146356)  can0  RX - -  0000E72C   [6]  00 00 00 00 08 07         '......'
 (2017-04-24 19:55:30.146883)  can0  RX - -  0001533C   [6]  00 00 00 00 08 07         '......'
 (2017-04-24 19:55:30.147354)  can0  RX - -  0000E72C   [5]  00 00 00 00 01            '.....'
 (2017-04-24 19:55:30.147840)  can0  RX - -  0001533C   [5]  00 00 00 00 01            '.....'
 (2017-04-24 19:55:32.086936)  can0  RX - -  00030300   [6]  7F FF FF FF 03 FF         '......'
 (2017-04-24 19:55:32.182287)  can0  RX - -  00030300   [6]  7F FF FF FF 04 FF         '......'
 (2017-04-24 19:55:32.277661)  can0  RX - -  00030300   [6]  7F FF FF FF 05 FF         '......'
 (2017-04-24 19:55:32.373132)  can0  RX - -  00030300   [6]  7F FF FF FF 06 FF         '......'
 (2017-04-24 19:55:32.537943)  can0  RX - -  00030300   [6]  7F FF FF FF 07 00         '......'
 (2017-04-24 19:55:32.633302)  can0  RX - -  00030300   [6]  7D FF FF FF 07 FF         '}.....'
 (2017-04-24 19:55:32.728663)  can0  RX - -  00030300   [6]  7D FF FF FF 08 FF         '}.....'
 (2017-04-24 19:55:32.824021)  can0  RX - -  00030300   [6]  7D FF FF FF 09 FF         '}.....'
 (2017-04-24 19:55:32.919394)  can0  RX - -  00030300   [6]  7D FF FF FF 0A FF         '}.....'
 (2017-04-24 19:55:33.014775)  can0  RX - -  00030300   [6]  7D FF FF FF 0B FF         '}.....'
 (2017-04-24 19:55:33.110148)  can0  RX - -  00030300   [6]  7D FF FF FF 0C FF         '}.....'
 (2017-04-24 19:55:33.205531)  can0  RX - -  00030300   [6]  7D FF FF FF 0D FF         '}.....'
 (2017-04-24 19:55:33.300923)  can0  RX - -  00030300   [6]  7D FF FF FF 0E FF         '}.....'
 (2017-04-24 19:55:33.465577)  can0  RX - -  00030300   [6]  7D FF FF FF 0F 00         '}.....'
 (2017-04-24 19:55:33.560856)  can0  RX - -  00030300   [6]  7D FD FF FF 0F FF         '}.....'
 (2017-04-24 19:55:33.725304)  can0  RX - -  00030300   [6]  7D FD FF FF 10 00         '}.....'
 (2017-04-24 19:55:33.820591)  can0  RX - -  00030300   [6]  7D FC FF FF 10 FF         '}.....'
 (2017-04-24 19:55:33.985053)  can0  RX - -  00030300   [6]  7D FC FF FF 11 00         '}.....'
 (2017-04-24 19:55:34.080347)  can0  RX - -  00030300   [6]  7D FC 7F FF 11 FF         '}.....'
 (2017-04-24 19:55:34.244569)  can0  RX - -  00030300   [6]  7D FC 7F FF 12 00         '}.....'
 (2017-04-24 19:55:34.339745)  can0  RX - -  00030300   [6]  7D FC 3F FF 12 FF         '}.?...'
 (2017-04-24 19:55:34.434920)  can0  RX - -  00030300   [6]  7D FC 3F FF 13 FF         '}.?...'
 (2017-04-24 19:55:34.530093)  can0  RX - -  00030300   [6]  7D FC 3F FF 14 FF         '}.?...'
 (2017-04-24 19:55:34.625281)  can0  RX - -  00030300   [6]  7D FC 3F FF 15 FF         '}.?...'
 (2017-04-24 19:55:34.789506)  can0  RX - -  00030300   [6]  7D FC 3F FF 16 00         '}.?...'
 (2017-04-24 19:55:34.884680)  can0  RX - -  00030300   [6]  7D FC 3B FF 16 FF         '}.;...'
 (2017-04-24 19:55:34.979848)  can0  RX - -  00030300   [6]  7D FC 3B FF 17 FF         '}.;...'
 (2017-04-24 19:55:35.144093)  can0  RX - -  00030300   [6]  7D FC 3B FF 18 00         '}.;...'
 (2017-04-24 19:55:35.239262)  can0  RX - -  00030300   [6]  7D FC 3A FF 18 FF         '}.:...'
 (2017-04-24 19:55:35.334457)  can0  RX - -  00030300   [6]  7D FC 3A FF 19 FF         '}.:...'
 (2017-04-24 19:55:35.498673)  can0  RX - -  00030300   [6]  7D FC 3A FF 1A 00         '}.:...'
 (2017-04-24 19:55:35.593757)  can0  RX - -  00030300   [6]  7D FC 3A BF 1A FF         '}.:...'
 (2017-04-24 19:55:35.757970)  can0  RX - -  00030300   [6]  7D FC 3A BF 1B 00         '}.:...'
 (2017-04-24 19:55:35.853044)  can0  RX - -  00030300   [6]  7D FC 3A 9F 1B FF         '}.:...'
 (2017-04-24 19:55:36.017051)  can0  RX - -  00030300   [6]  7D FC 3A 9F 1C 00         '}.:...'
 (2017-04-24 19:55:36.112100)  can0  RX - -  00030300   [6]  7D FC 3A 8F 1C FF         '}.:...'
 (2017-04-24 19:55:36.276120)  can0  RX - -  00030300   [6]  7D FC 3A 8F 1D 00         '}.:...'
 (2017-04-24 19:55:36.371183)  can0  RX - -  00030300   [6]  7D FC 3A 87 1D FF         '}.:...'
 (2017-04-24 19:55:36.535226)  can0  RX - -  00030300   [6]  7D FC 3A 87 1E 00         '}.:...'
 (2017-04-24 19:55:36.630305)  can0  RX - -  00030300   [6]  7D FC 3A 83 1E FF         '}.:...'
 (2017-04-24 19:55:36.794343)  can0  RX - -  00030300   [6]  7D FC 3A 83 1F 00         '}.:...'
 (2017-04-24 19:55:36.889402)  can0  RX - -  00030300   [6]  7D FC 3A 81 1F FF         '}.:...'
 (2017-04-24 19:55:37.053414)  can0  RX - -  00030300   [6]  7D FC 3A 81 20 00         '}.:. .'
 (2017-04-24 19:55:37.148459)  can0  RX - -  00030300   [6]  7D FC 3A 80 20 FF         '}.:. .'
 (2017-04-24 19:55:37.175949)  can0  RX - -  00030300   [5]  7D FC 3A 80 20            '}.:. '
 (2017-04-24 19:55:37.176663)  can0  RX - -  0004E72C   [6]  7D FC 3A 80 00 01         '}.:...'
 (2017-04-24 19:55:37.422017)  can0  RX - -  0005533C   [6]  7D FC 3A 80 00 01         '}.:...'
 (2017-04-24 19:55:37.422600)  can0  RX - -  0006E72C   [6]  7D FC 3A 80 00 01         '}.:...'
 (2017-04-24 19:55:37.514543)  can0  RX - -  0007533C   [7]  7D FC 3A 80 00 01 FF      '}.:....'
 (2017-04-24 19:55:37.515236)  can0  RX - -  000EE72C   [7]  00 00 40 01 00 00 02      '..@....'
 (2017-04-24 19:55:37.644533)  can0  RX - -  000F0300   [7]  00 00 40 01 00 00 01      '..@....'
 (2017-04-24 19:55:37.645084)  can0  RX - -  000F0300   [7]  00 00 40 01 04 00 01      '..@....'
 (2017-04-24 19:55:37.645725)  can0  RX - -  000EE72C   [7]  00 00 40 01 00 01 01      '..@....'
 (2017-04-24 19:55:37.767173)  can0  RX - -  000F0300   [7]  00 00 40 01 00 01 14      '..@....'
 (2017-04-24 19:55:37.767807)  can0  RX - -  000EE72C   [7]  00 00 40 01 00 02 01      '..@....'
 (2017-04-24 19:55:37.889850)  can0  RX - -  000F0300   [7]  00 00 40 01 00 02 16      '..@....'
 (2017-04-24 19:55:37.890490)  can0  RX - -  000EE72C   [7]  00 00 40 01 00 03 01      '..@....'
 (2017-04-24 19:55:38.012525)  can0  RX - -  000F0300   [7]  00 00 40 01 00 03 18      '..@....'
 (2017-04-24 19:55:38.013151)  can0  RX - -  000EE72C   [7]  00 00 40 01 00 04 01      '..@....'
 (2017-04-24 19:55:38.135185)  can0  RX - -  000F0300   [7]  00 00 40 01 00 04 17      '..@....'
 (2017-04-24 19:55:38.135813)  can0  RX - -  000EE72C   [7]  00 00 40 01 04 04 10      '..@....'
 (2017-04-24 19:55:38.279721)  can0  RX - -  000F0300   [7]  00 00 40 01 04 04 03      '..@....'
 (2017-04-24 19:55:38.280266)  can0  RX - -  000F0300   [7]  00 00 40 01 08 04 04      '..@....'
 (2017-04-24 19:55:38.280806)  can0  RX - -  000F0300   [7]  00 00 40 01 0C 04 05      '..@....'
 (2017-04-24 19:55:38.281350)  can0  RX - -  000F0300   [7]  00 00 40 01 10 04 13      '..@....'
 (2017-04-24 19:55:38.516489)  can0  RX - -  000F0300   [7]  00 00 40 01 14 04 16      '..@....'
 (2017-04-24 19:55:38.517036)  can0  RX - -  000F0300   [7]  00 00 40 01 18 04 1F      '..@....'
 (2017-04-24 19:55:38.517571)  can0  RX - -  000F0300   [7]  00 00 40 01 1C 04 23      '..@...#'
 (2017-04-24 19:55:38.518125)  can0  RX - -  000F0300   [7]  00 00 40 01 20 04 00      '..@. ..'
 (2017-04-24 19:55:38.634886)  can0  RX - -  000F0300   [7]  00 00 40 01 24 04 00      '..@.$..'
 (2017-04-24 19:55:38.635436)  can0  RX - -  000F0300   [7]  00 00 40 01 28 04 00      '..@.(..'
 (2017-04-24 19:55:38.635977)  can0  RX - -  000F0300   [7]  00 00 40 01 2C 04 00      '..@.,..'
 (2017-04-24 19:55:38.636531)  can0  RX - -  000F0300   [7]  00 00 40 01 30 04 00      '..@.0..'
 (2017-04-24 19:55:38.753283)  can0  RX - -  000F0300   [7]  00 00 40 01 34 04 00      '..@.4..'
 (2017-04-24 19:55:38.753836)  can0  RX - -  000F0300   [7]  00 00 40 01 38 04 00      '..@.8..'
 (2017-04-24 19:55:38.754380)  can0  RX - -  000F0300   [7]  00 00 40 01 3C 04 00      '..@.<..'
 (2017-04-24 19:55:38.754939)  can0  RX - -  000F0300   [7]  00 00 40 01 40 04 00      '..@.@..'
 (2017-04-24 19:55:38.755561)  can0  RX - -  000EE72C   [7]  00 00 40 01 00 0C 02      '..@....'
 (2017-04-24 19:55:38.883203)  can0  RX - -  000F0300   [7]  00 00 40 01 00 0C 01      '..@....'
 (2017-04-24 19:55:38.883749)  can0  RX - -  000F0300   [7]  00 00 40 01 04 0C 02      '..@....'
 (2017-04-24 19:55:38.884379)  can0  RX - -  000EE72C   [7]  00 00 40 01 00 0D 01      '..@....'
 (2017-04-24 19:55:39.005836)  can0  RX - -  000F0300   [7]  00 00 40 01 00 0D 10      '..@....'
 (2017-04-24 19:55:39.006467)  can0  RX - -  000EE72C   [7]  00 00 40 01 00 0E 01      '..@....'
 (2017-04-24 19:55:39.128510)  can0  RX - -  000F0300   [7]  00 00 40 01 00 0E 11      '..@....'
 (2017-04-24 19:55:39.129127)  can0  RX - -  000EE72C   [7]  00 00 40 01 04 0E 10      '..@....'
 (2017-04-24 19:55:39.273055)  can0  RX - -  000F0300   [7]  00 00 40 01 04 0E 01      '..@....'
 (2017-04-24 19:55:39.273598)  can0  RX - -  000F0300   [7]  00 00 40 01 08 0E 04      '..@....'
 (2017-04-24 19:55:39.274137)  can0  RX - -  000F0300   [7]  00 00 40 01 0C 0E 07      '..@....'
 (2017-04-24 19:55:39.274685)  can0  RX - -  000F0300   [7]  00 00 40 01 10 0E 0A      '..@....'
 (2017-04-24 19:55:39.391450)  can0  RX - -  000F0300   [7]  00 00 40 01 14 0E 0D      '..@....'
 (2017-04-24 19:55:39.391996)  can0  RX - -  000F0300   [7]  00 00 40 01 18 0E 10      '..@....'
 (2017-04-24 19:55:39.392524)  can0  RX - -  000F0300   [7]  00 00 40 01 1C 0E 13      '..@....'
 (2017-04-24 19:55:39.393065)  can0  RX - -  000F0300   [7]  00 00 40 01 20 0E 16      '..@. ..'
 (2017-04-24 19:55:39.509843)  can0  RX - -  000F0300   [7]  00 00 40 01 24 0E 19      '..@.$..'
 (2017-04-24 19:55:39.510388)  can0  RX - -  000F0300   [7]  00 00 40 01 28 0E 1C      '..@.(..'
 (2017-04-24 19:55:39.510938)  can0  RX - -  000F0300   [7]  00 00 40 01 2C 0E 1F      '..@.,..'
 (2017-04-24 19:55:39.511469)  can0  RX - -  000F0300   [7]  00 00 40 01 30 0E 22      '..@.0."'
 (2017-04-24 19:55:39.628241)  can0  RX - -  000F0300   [7]  00 00 40 01 34 0E 25      '..@.4.%'
 (2017-04-24 19:55:39.628798)  can0  RX - -  000F0300   [7]  00 00 40 01 38 0E 28      '..@.8.('
 (2017-04-24 19:55:39.629329)  can0  RX - -  000F0300   [7]  00 00 40 01 3C 0E 2B      '..@.<.+'
 (2017-04-24 19:55:39.629881)  can0  RX - -  000F0300   [7]  00 00 40 01 40 0E 2E      '..@.@..'
 (2017-04-24 19:55:39.630509)  can0  RX - -  000EE72C   [7]  00 00 40 01 00 0F 01      '..@....'
 (2017-04-24 19:55:39.750870)  can0  RX - -  000F0300   [7]  00 00 40 01 00 0F 00      '..@....'
 (2017-04-24 19:55:39.751510)  can0  RX - -  000EE72C   [7]  00 00 40 01 00 10 02      '..@....'
 (2017-04-24 19:55:39.880834)  can0  RX - -  000F0300   [7]  00 00 40 01 00 10 01      '..@....'
 (2017-04-24 19:55:39.881394)  can0  RX - -  000F0300   [7]  00 00 40 01 04 10 03      '..@....'
 (2017-04-24 19:55:39.882020)  can0  RX - -  000EE72C   [7]  00 00 40 01 00 14 02      '..@....'
 (2017-04-24 19:55:40.010781)  can0  RX - -  000F0300   [7]  00 00 40 01 00 14 01      '..@....'
 (2017-04-24 19:55:40.011338)  can0  RX - -  000F0300   [7]  00 00 40 01 04 14 04      '..@....'
 (2017-04-24 19:55:40.011948)  can0  RX - -  000EE72C   [7]  00 00 40 01 00 4C 02      '..@..L.'
 (2017-04-24 19:55:40.140724)  can0  RX - -  000F0300   [7]  00 00 40 01 00 4C 01      '..@..L.'
 (2017-04-24 19:55:40.141271)  can0  RX - -  000F0300   [7]  00 00 40 01 04 4C 05      '..@..L.'
 (2017-04-24 19:55:40.141889)  can0  RX - -  000EE72C   [7]  00 00 40 01 00 4D 01      '..@..M.'
 (2017-04-24 19:55:40.263381)  can0  RX - -  000F0300   [7]  00 00 40 01 00 4D 10      '..@..M.'
 (2017-04-24 19:55:40.264004)  can0  RX - -  000EE72C   [7]  00 00 40 01 00 4E 01      '..@..N.'
 (2017-04-24 19:55:40.386028)  can0  RX - -  000F0300   [7]  00 00 40 01 00 4E 13      '..@..N.'
 (2017-04-24 19:55:40.386654)  can0  RX - -  000EE72C   [7]  00 00 40 01 00 4F 01      '..@..O.'
 (2017-04-24 19:55:40.508693)  can0  RX - -  000F0300   [7]  00 00 40 01 00 4F 17      '..@..O.'
 (2017-04-24 19:55:40.509308)  can0  RX - -  000EE72C   [7]  00 00 40 01 00 58 02      '..@..X.'
 (2017-04-24 19:55:40.638636)  can0  RX - -  000F0300   [7]  00 00 40 01 00 58 01      '..@..X.'
 (2017-04-24 19:55:40.639181)  can0  RX - -  000F0300   [7]  00 00 40 01 04 58 06      '..@..X.'
 (2017-04-24 19:55:40.639801)  can0  RX - -  000EE72C   [7]  00 00 40 01 00 7C 02      '..@..|.'
 (2017-04-24 19:55:40.768592)  can0  RX - -  000F0300   [7]  00 00 40 01 00 7C 01      '..@..|.'
 (2017-04-24 19:55:40.769142)  can0  RX - -  000F0300   [7]  00 00 40 01 04 7C 07      '..@..|.'
 (2017-04-24 19:55:40.769758)  can0  RX - -  000EE72C   [7]  00 00 40 01 00 7D 01      '..@..}.'
 (2017-04-24 19:55:40.891224)  can0  RX - -  000F0300   [7]  00 00 40 01 00 7D 10      '..@..}.'
 (2017-04-24 19:55:40.891854)  can0  RX - -  000EE72C   [7]  00 00 40 01 00 7E 01      '..@..~.'
 (2017-04-24 19:55:41.013893)  can0  RX - -  000F0300   [7]  00 00 40 01 00 7E 11      '..@..~.'
 (2017-04-24 19:55:41.014525)  can0  RX - -  000EE72C   [7]  00 00 40 01 00 7F 01      '..@....'
 (2017-04-24 19:55:41.136554)  can0  RX - -  000F0300   [7]  00 00 40 01 00 7F 12      '..@....'
 (2017-04-24 19:55:41.137184)  can0  RX - -  000EE72C   [7]  00 00 40 01 00 80 01      '..@....'
 (2017-04-24 19:55:41.259216)  can0  RX - -  000F0300   [7]  00 00 40 01 00 80 14      '..@....'
 (2017-04-24 19:55:41.259846)  can0  RX - -  000EE72C   [7]  00 00 40 01 00 81 01      '..@....'
 (2017-04-24 19:55:41.381877)  can0  RX - -  000F0300   [7]  00 00 40 01 00 81 10      '..@....'
 (2017-04-24 19:55:41.382508)  can0  RX - -  000EE72C   [7]  00 00 40 01 00 82 01      '..@....'
 (2017-04-24 19:55:41.504525)  can0  RX - -  000F0300   [7]  00 00 40 01 00 82 11      '..@....'
 (2017-04-24 19:55:41.505156)  can0  RX - -  000EE72C   [7]  00 00 40 01 00 83 01      '..@....'
 (2017-04-24 19:55:41.627185)  can0  RX - -  000F0300   [7]  00 00 40 01 00 83 12      '..@....'
 (2017-04-24 19:55:41.627801)  can0  RX - -  000EE72C   [7]  00 00 40 01 00 84 01      '..@....'
 (2017-04-24 19:55:41.749830)  can0  RX - -  000F0300   [7]  00 00 40 01 00 84 14      '..@....'
 (2017-04-24 19:55:41.750456)  can0  RX - -  000EE72C   [7]  00 00 40 01 00 85 01      '..@....'
 (2017-04-24 19:55:41.872479)  can0  RX - -  000F0300   [7]  00 00 40 01 00 85 10      '..@....'
 (2017-04-24 19:55:41.873107)  can0  RX - -  000EE72C   [7]  00 00 40 01 00 86 01      '..@....'
 (2017-04-24 19:55:41.995135)  can0  RX - -  000F0300   [7]  00 00 40 01 00 86 11      '..@....'
 (2017-04-24 19:55:41.995760)  can0  RX - -  000EE72C   [7]  00 00 40 01 00 87 01      '..@....'
 (2017-04-24 19:55:42.117808)  can0  RX - -  000F0300   [7]  00 00 40 01 00 87 12      '..@....'
 (2017-04-24 19:55:42.118437)  can0  RX - -  000EE72C   [7]  00 00 40 01 00 88 01      '..@....'
 (2017-04-24 19:55:42.240569)  can0  RX - -  000F0300   [7]  00 00 40 01 00 88 13      '..@....'
 (2017-04-24 19:55:42.241192)  can0  RX - -  000EE72C   [7]  00 00 40 01 00 8C 02      '..@....'
 (2017-04-24 19:55:42.370524)  can0  RX - -  000F0300   [7]  00 00 40 01 00 8C 01      '..@....'
 (2017-04-24 19:55:42.371070)  can0  RX - -  000F0300   [7]  00 00 40 01 04 8C 09      '..@....'
 (2017-04-24 19:55:42.371732)  can0  RX - -  000EE72C   [7]  00 00 40 01 04 03 10      '..@....'
 (2017-04-24 19:55:42.515070)  can0  RX - -  000F0300   [7]  00 00 40 01 04 03 33      '..@...3'
 (2017-04-24 19:55:42.515603)  can0  RX - -  000F0300   [7]  00 00 40 01 08 03 33      '..@...3'
 (2017-04-24 19:55:42.516138)  can0  RX - -  000F0300   [7]  00 00 40 01 0C 03 35      '..@...5'
 (2017-04-24 19:55:42.516690)  can0  RX - -  000F0300   [7]  00 00 40 01 10 03 20      '..@... '
 (2017-04-24 19:55:42.633445)  can0  RX - -  000F0300   [7]  00 00 40 01 14 03 31      '..@...1'
 (2017-04-24 19:55:42.633985)  can0  RX - -  000F0300   [7]  00 00 40 01 18 03 30      '..@...0'
 (2017-04-24 19:55:42.634523)  can0  RX - -  000F0300   [7]  00 00 40 01 1C 03 35      '..@...5'
 (2017-04-24 19:55:42.635071)  can0  RX - -  000F0300   [7]  00 00 40 01 20 03 2D      '..@. .-'
 (2017-04-24 19:55:42.751807)  can0  RX - -  000F0300   [7]  00 00 40 01 24 03 33      '..@.$.3'
 (2017-04-24 19:55:42.752356)  can0  RX - -  000F0300   [7]  00 00 40 01 28 03 20      '..@.(. '
 (2017-04-24 19:55:42.752899)  can0  RX - -  000F0300   [7]  00 00 40 01 2C 03 44      '..@.,.D'
 (2017-04-24 19:55:42.753444)  can0  RX - -  000F0300   [7]  00 00 40 01 30 03 42      '..@.0.B'
 (2017-04-24 19:55:42.870185)  can0  RX - -  000F0300   [7]  00 00 40 01 34 03 00      '..@.4..'
 (2017-04-24 19:55:42.870730)  can0  RX - -  000F0300   [7]  00 00 40 01 38 03 00      '..@.8..'
 (2017-04-24 19:55:42.871274)  can0  RX - -  000F0300   [7]  00 00 40 01 3C 03 00      '..@.<..'
 (2017-04-24 19:55:42.871825)  can0  RX - -  000F0300   [7]  00 00 40 01 40 03 00      '..@.@..'
 (2017-04-24 19:55:42.872450)  can0  RX - -  000EE72C   [7]  00 00 40 01 04 02 02      '..@....'
 (2017-04-24 19:55:43.000089)  can0  RX - -  000F0300   [7]  00 00 40 01 04 02 01      '..@....'
 (2017-04-24 19:55:43.000636)  can0  RX - -  000F0300   [7]  00 00 40 01 08 02 0A      '..@....'
 (2017-04-24 19:55:43.001254)  can0  RX - -  000EE72C   [7]  00 00 40 01 04 88 01      '..@....'
 (2017-04-24 19:55:43.122731)  can0  RX - -  000F0300   [7]  00 00 40 01 04 88 0D      '..@....'
 (2017-04-24 19:55:43.123365)  can0  RX - -  000EE72C   [7]  00 00 40 01 04 4F 02      '..@..O.'
 (2017-04-24 19:55:43.252675)  can0  RX - -  000F0300   [7]  00 00 40 01 04 4F 14      '..@..O.'
 (2017-04-24 19:55:43.253225)  can0  RX - -  000F0300   [7]  00 00 40 01 08 4F FF      '..@..O.'
 (2017-04-24 19:55:43.253835)  can0  RX - -  000EE72C   [7]  00 00 40 01 04 4E 02      '..@..N.'
 (2017-04-24 19:55:43.382642)  can0  RX - -  000F0300   [7]  00 00 40 01 04 4E 0F      '..@..N.'
 (2017-04-24 19:55:43.383191)  can0  RX - -  000F0300   [7]  00 00 40 01 08 4E 0F      '..@..N.'
 (2017-04-24 19:55:43.383815)  can0  RX - -  000EE72C   [7]  00 00 40 01 04 15 02      '..@....'
 (2017-04-24 19:55:43.512588)  can0  RX - -  000F0300   [7]  00 00 40 01 04 15 03      '..@....'
 (2017-04-24 19:55:43.513132)  can0  RX - -  000F0300   [7]  00 00 40 01 08 15 03      '..@....'
 (2017-04-24 19:55:43.513752)  can0  RX - -  000EE72C   [7]  00 00 40 01 04 18 02      '..@....'
 (2017-04-24 19:55:43.642507)  can0  RX - -  000F0300   [7]  00 00 40 01 04 18 06      '..@....'
 (2017-04-24 19:55:43.643068)  can0  RX - -  000F0300   [7]  00 00 40 01 08 18 20      '..@... '
 (2017-04-24 19:55:43.643686)  can0  RX - -  000EE72C   [7]  00 00 40 01 04 1B 02      '..@....'
 (2017-04-24 19:55:43.772442)  can0  RX - -  000F0300   [7]  00 00 40 01 04 1B 06      '..@....'
 (2017-04-24 19:55:43.772989)  can0  RX - -  000F0300   [7]  00 00 40 01 08 1B 20      '..@... '
 (2017-04-24 19:55:43.773618)  can0  RX - -  000EE72C   [7]  00 00 40 01 04 1E 02      '..@....'
 (2017-04-24 19:55:43.902412)  can0  RX - -  000F0300   [7]  00 00 40 01 04 1E 00      '..@....'
 (2017-04-24 19:55:43.902958)  can0  RX - -  000F0300   [7]  00 00 40 01 08 1E 00      '..@....'
 (2017-04-24 19:55:43.903572)  can0  RX - -  000EE72C   [7]  00 00 40 01 04 21 02      '..@..!.'
 (2017-04-24 19:55:44.032325)  can0  RX - -  000F0300   [7]  00 00 40 01 04 21 0B      '..@..!.'
 (2017-04-24 19:55:44.032869)  can0  RX - -  000F0300   [7]  00 00 40 01 08 21 0B      '..@..!.'
 (2017-04-24 19:55:44.033493)  can0  RX - -  000EE72C   [7]  00 00 40 01 04 24 02      '..@..$.'
 (2017-04-24 19:55:44.162272)  can0  RX - -  000F0300   [7]  00 00 40 01 04 24 00      '..@..$.'
 (2017-04-24 19:55:44.162824)  can0  RX - -  000F0300   [7]  00 00 40 01 08 24 00      '..@..$.'
 (2017-04-24 19:55:44.163438)  can0  RX - -  000EE72C   [7]  00 00 40 01 04 27 02      '..@..'.'
 (2017-04-24 19:55:44.292207)  can0  RX - -  000F0300   [7]  00 00 40 01 04 27 03      '..@..'.'
 (2017-04-24 19:55:44.292750)  can0  RX - -  000F0300   [7]  00 00 40 01 08 27 03      '..@..'.'
 (2017-04-24 19:55:44.293369)  can0  RX - -  000EE72C   [7]  00 00 40 01 04 2A 02      '..@..*.'
 (2017-04-24 19:55:44.422164)  can0  RX - -  000F0300   [7]  00 00 40 01 04 2A 00      '..@..*.'
 (2017-04-24 19:55:44.422732)  can0  RX - -  000F0300   [7]  00 00 40 01 08 2A 00      '..@..*.'
 (2017-04-24 19:55:44.423332)  can0  RX - -  000EE72C   [7]  00 00 40 01 04 2D 02      '..@..-.'
 (2017-04-24 19:55:44.552112)  can0  RX - -  000F0300   [7]  00 00 40 01 04 2D 03      '..@..-.'
 (2017-04-24 19:55:44.552657)  can0  RX - -  000F0300   [7]  00 00 40 01 08 2D 03      '..@..-.'
 (2017-04-24 19:55:44.553283)  can0  RX - -  000EE72C   [7]  00 00 40 01 04 30 02      '..@..0.'
 (2017-04-24 19:55:44.682062)  can0  RX - -  000F0300   [7]  00 00 40 01 04 30 00      '..@..0.'
 (2017-04-24 19:55:44.682613)  can0  RX - -  000F0300   [7]  00 00 40 01 08 30 00      '..@..0.'
 (2017-04-24 19:55:44.683234)  can0  RX - -  000EE72C   [7]  00 00 40 01 04 33 02      '..@..3.'
 (2017-04-24 19:55:44.811987)  can0  RX - -  000F0300   [7]  00 00 40 01 04 33 00      '..@..3.'
 (2017-04-24 19:55:44.812534)  can0  RX - -  000F0300   [7]  00 00 40 01 08 33 00      '..@..3.'
 (2017-04-24 19:55:44.813156)  can0  RX - -  000EE72C   [7]  00 00 40 01 04 36 02      '..@..6.'
 (2017-04-24 19:55:44.941950)  can0  RX - -  000F0300   [7]  00 00 40 01 04 36 00      '..@..6.'
 (2017-04-24 19:55:44.942494)  can0  RX - -  000F0300   [7]  00 00 40 01 08 36 00      '..@..6.'
 (2017-04-24 19:55:44.943109)  can0  RX - -  000EE72C   [7]  00 00 40 01 04 39 02      '..@..9.'
 (2017-04-24 19:55:45.071883)  can0  RX - -  000F0300   [7]  00 00 40 01 04 39 00      '..@..9.'
 (2017-04-24 19:55:45.072428)  can0  RX - -  000F0300   [7]  00 00 40 01 08 39 00      '..@..9.'
 (2017-04-24 19:55:45.073046)  can0  RX - -  000EE72C   [7]  00 00 40 01 04 3C 02      '..@..<.'
 (2017-04-24 19:55:45.201929)  can0  RX - -  000F0300   [7]  00 00 40 01 04 3C 00      '..@..<.'
 (2017-04-24 19:55:45.202484)  can0  RX - -  000F0300   [7]  00 00 40 01 08 3C 00      '..@..<.'
 (2017-04-24 19:55:45.203103)  can0  RX - -  000EE72C   [7]  00 00 40 01 04 3F 02      '..@..?.'
 (2017-04-24 19:55:45.331888)  can0  RX - -  000F0300   [7]  00 00 40 01 04 3F 00      '..@..?.'
 (2017-04-24 19:55:45.332436)  can0  RX - -  000F0300   [7]  00 00 40 01 08 3F 00      '..@..?.'
 (2017-04-24 19:55:45.333053)  can0  RX - -  000EE72C   [7]  00 00 40 01 04 42 02      '..@..B.'
 (2017-04-24 19:55:45.461833)  can0  RX - -  000F0300   [7]  00 00 40 01 04 42 00      '..@..B.'
 (2017-04-24 19:55:45.462377)  can0  RX - -  000F0300   [7]  00 00 40 01 08 42 00      '..@..B.'
 (2017-04-24 19:55:45.462980)  can0  RX - -  0004E72C   [6]  7D FC 3A 80 00 05         '}.:...'
 (2017-04-24 19:55:45.709212)  can0  RX - -  0005533C   [6]  7D FC 3A 80 00 05         '}.:...'
 (2017-04-24 19:55:45.853162)  can0  RX - -  0006E72C   [6]  7D FC 3A 80 00 05         '}.:...'
 (2017-04-24 19:55:45.932322)  can0  RX - -  0007533C   [7]  7D FC 3A 80 00 05 FF      '}.:....'
 (2017-04-24 19:55:53.053647)  can0  RX - -  0030E72C   [0]                            ''
 (2017-04-24 19:55:53.054252)  can0  RX - -  0031533C   [8]  47 43 7B 11 01 27 00 10   'GC{..'..'
```
