
16:10:30.197982 can0  RX - -  1C00007E   [0] 
16:10:30.207320 can0  TX - -  1C0004FE   [8]  00 00 00 00 00 00 00 01
16:10:30.210007 can0  RX - E  1C10847E   [0] 
16:10:30.218532 can0  TX - -  1C1084FE   [8]  00 00 00 00 00 00 00 00
16:10:30.221995 can0  RX - -  1F19047E   [0] 
16:10:30.240608 can0  TX - -  1F1904FE   [8]  00 00 00 00 00 00 00 00
16:10:30.245997 can0  RX - E  1E9D847E   [0] 
16:10:30.261779 can0  TX - -  1E9D84FE   [8]  00 00 00 00 00 00 00 00
16:10:30.266668 can0  RX - E  1C02047E   [8]  00 04 C6 A7 00 02 00 03
16:10:30.267740 can0  RX B E  1C02847E   [8]  00 00 00 97 01 01 40 10
16:10:30.267838 can0  RX - E  1C03047E   [8]  01 01 01 80 00 00 40 10
16:10:30.269250 can0  RX - E  1C03847E   [8]  00 00 40 10 01 08 00 10
16:10:30.325678 can0  TX - -  1C0384FE   [8]  00 04 C6 A7 00 02 83 00
16:10:30.330168 can0  RX - E  18000A03   [2]  40 03
16:10:30.336543 can0  TX - -  18000A02   [8]  40 03 00 00 00 08 00 01
16:10:30.342166 can0  RX - -  18000983   [2]  03 00
16:10:30.347679 can0  TX - -  18002082   [4]  02 00 00 00
16:10:30.350653 can0  RX - E  18002083   [8]  02 00 00 00 4D 4F 42 49
16:10:30.352125 can0  TX - -  18000982   [8]  03 00 00 00 00 03 00 01
16:10:30.354181 can0  RX - E  18000D03   [2]  01 01
16:10:30.358777 can0  TX - -  18002082   [4]  02 00 00 04
16:10:30.362648 can0  RX - -  18002083   [8]  02 00 00 04 4C 45 20 53
16:10:30.364236 can0  TX - -  18000D02   [3]  01 01 01
16:10:30.366190 can0  RX - -  18000D03   [2]  01 00
16:10:30.368762 can0  TX - -  18002082   [4]  02 00 00 08
16:10:30.374659 can0  RX - E  18002083   [8]  02 00 00 08 54 41 54 49
16:10:30.379737 can0  TX - -  18000D02   [3]  01 00 00
16:10:30.382181 can0  RX - -  18000D03   [2]  02 01
16:10:30.383832 can0  TX - -  18002082   [4]  02 00 00 0C
16:10:30.386583 can0  RX - E  18002083   [7]  02 00 00 0C 4F 4E 00
16:10:30.389931 can0  TX - -  18000D02   [3]  02 01 02
16:10:30.394188 can0  RX - E  18000D03   [2]  02 00
16:10:30.400251 can0  TX - -  18000D02   [3]  02 00 00
16:10:30.402182 can0  RX - -  18000D03   [2]  03 01
16:10:30.411241 can0  TX - -  18000D02   [3]  03 01 04
16:10:30.417310 can0  RX - -  18000D03   [2]  03 00
16:10:30.421155 can0  TX - -  18000D02   [3]  03 00 00
16:10:30.426178 can0  RX - E  18000D03   [2]  04 01
16:10:30.431175 can0  TX - -  18000D02   [2]  04 01
16:10:30.434342 can0  RX - -  18000983   [4]  80 02 00 00
16:10:30.441331 can0  TX - -  18000982   [8]  80 02 00 00 00 09 00 01
16:10:30.446896 can0  RX - E  18000983   [4]  80 02 00 09
16:10:30.447592 can0  RX - E  18002483   [4]  40 03 00 00
16:10:30.452579 can0  TX - -  18000982   [4]  80 02 00 09
16:10:30.454343 can0  RX - -  18000983   [4]  81 02 00 00
16:10:30.463606 can0  TX - -  18002482   [6]  40 03 00 00 00 02
16:10:30.466365 can0  RX - -  18002483   [4]  40 01 00 00
16:10:30.474538 can0  TX - -  18000982   [4]  81 02 00 00
16:10:30.478350 can0  RX - E  18000983   [4]  82 02 00 00
16:10:30.485782 can0  TX - -  18002482   [8]  40 01 00 00 00 0D 00 00
16:10:30.490363 can0  RX - -  18002483   [4]  40 01 01 00
16:10:30.496912 can0  TX - -  18000982   [4]  82 02 00 00
16:10:30.506886 can0  TX - -  18002482   [8]  40 01 01 00 00 05 00 00
16:10:30.517302 can0  RX - -  18002503   [2]  01 01
16:10:30.527029 can0  TX - -  18002502   [4]  01 01 01 01
16:10:30.530192 can0  RX - -  18002503   [2]  01 00
16:10:30.537089 can0  TX - -  18002502   [3]  01 00 00
16:10:30.542190 can0  RX - -  18002503   [2]  02 01
16:10:30.547065 can0  TX - -  18002502   [4]  02 01 02 01
16:10:30.550674 can0  RX - -  18002503   [2]  02 00
16:10:30.556985 can0  TX - -  18002502   [3]  02 00 00
16:10:30.562197 can0  RX B E  18002503   [2]  03 01
16:10:30.566967 can0  TX - -  18002502   [4]  03 01 02 06
16:10:30.570688 can0  RX - -  18002503   [2]  03 00
16:10:30.577254 can0  TX - -  18002502   [3]  03 00 00
16:10:30.582200 can0  RX - -  18002503   [2]  04 01
16:10:30.587324 can0  TX - -  18002502   [4]  04 01 02 06
16:10:30.590691 can0  RX - E  18002503   [2]  04 00
16:10:30.598453 can0  TX - -  18002502   [3]  04 00 00
16:10:30.602199 can0  RX - E  18002503   [2]  05 01
16:10:30.609359 can0  TX - -  18002502   [4]  05 01 02 08
16:10:30.617300 can0  RX - -  18002503   [2]  05 00
16:10:30.630586 can0  TX - -  18002502   [3]  05 00 00
16:10:30.634201 can0  RX - E  18002503   [2]  06 01
16:10:30.641381 can0  TX - -  18002502   [4]  06 01 02 01
16:10:30.646711 can0  RX - E  18002503   [2]  06 00
16:10:30.663585 can0  TX - -  18002502   [3]  06 00 00
16:10:30.666229 can0  RX - -  18002503   [2]  07 01
16:10:30.674615 can0  TX - -  18002502   [4]  07 01 02 01
16:10:30.678729 can0  RX - -  18002503   [2]  07 00
16:10:30.696676 can0  TX - -  18002502   [3]  07 00 00
16:10:30.698206 can0  RX B E  18002503   [2]  08 01
16:10:30.717800 can0  TX - -  18002502   [2]  08 01
16:10:30.722354 can0  RX - E  18002503   [4]  01 02 00 00
16:10:30.737969 can0  TX - -  18002502   [5]  01 02 00 00 FF
16:10:30.742361 can0  RX - E  18002503   [4]  01 02 01 00
16:10:30.758192 can0  TX - -  18002502   [5]  01 02 01 00 0F
16:10:30.762365 can0  RX - E  18002503   [4]  01 02 02 00
16:10:30.779382 can0  TX - -  18002502   [5]  01 02 02 00 0F
16:10:30.782362 can0  RX - E  18002483   [4]  40 04 00 00
16:10:30.801697 can0  TX - -  18002482   [6]  40 04 00 00 01 00
16:10:30.806202 can0  RX - E  18002403   [2]  03 00
16:10:30.812577 can0  TX - -  18002402   [6]  03 00 00 00 00 01
16:10:30.822337 can0  RX - E  18002483   [4]  02 00 00 00
16:10:30.834669 can0  TX - -  18002482   [8]  02 00 00 00 33 33 35 20
16:10:30.838382 can0  RX - -  18002483   [4]  02 00 00 04
16:10:30.845734 can0  TX - -  18002482   [8]  02 00 00 04 31 30 35 2D
16:10:30.850383 can0  RX - E  18002483   [4]  02 00 00 08
16:10:30.856620 can0  TX - -  18002482   [8]  02 00 00 08 33 20 44 42
16:10:30.862379 can0  RX - -  18002483   [4]  02 00 00 0C
16:10:30.867609 can0  TX - -  18002482   [8]  02 00 00 0C 00 00 00 00
16:10:31.122322 can0  RX - -  0C000783   [4]  00 00 00 02
16:10:31.132475 can0  TX - -  0C000782   [8]  03 00 00 02 00 00 00 00
16:10:31.390324 can0  RX - -  0C000783   [4]  00 00 00 02
16:10:31.403846 can0  TX - -  0C000782   [8]  03 00 00 02 00 00 00 00
16:10:31.658327 can0  RX - -  0C000783   [4]  00 00 00 02
16:10:31.669312 can0  TX - -  0C000782   [8]  03 00 00 02 00 00 00 00
16:10:31.926333 can0  RX - -  0C000783   [4]  00 00 00 02
16:10:31.936962 can0  TX - -  0C000782   [8]  03 00 00 02 00 00 00 00
16:10:32.158525 can0  RX - -  14002403   [6]  03 00 00 08 00 01
16:10:32.166429 can0  TX - -  14002402   [6]  03 00 00 08 00 01

16:10:32.422336 can0  RX - -  0C000783   [4]  00 00 00 02
16:10:32.436686 can0  TX - -  0C000782   [8]  03 00 00 02 00 00 00 00
16:10:32.694344 can0  RX - -  0C000783   [4]  00 00 00 02
16:10:32.717473 can0  TX - -  0C000782   [8]  03 00 00 02 00 00 00 00
16:10:32.974345 can0  RX - -  0C000783   [4]  00 00 00 02
16:10:32.988945 can0  TX - -  0C000782   [8]  03 00 00 02 00 00 00 00
16:10:33.246342 can0  RX - -  0C000783   [4]  00 00 00 02
16:10:33.256041 can0  TX - -  0C000782   [8]  03 00 00 02 00 00 00 00
16:10:33.510347 can0  RX - -  0C000783   [4]  00 00 00 02
16:10:33.525433 can0  TX - -  0C000782   [8]  03 00 00 02 00 00 00 00
16:10:33.782352 can0  RX - E  0C000783   [4]  00 00 00 02
16:10:33.788151 can0  TX - -  0C000782   [8]  03 00 00 02 00 00 00 00
16:10:34.042354 can0  RX - -  0C000783   [4]  00 00 00 02
16:10:34.065144 can0  TX - -  0C000782   [8]  03 00 00 02 00 00 00 00
16:10:34.322360 can0  RX - -  0C000783   [4]  00 00 00 02
16:10:34.341712 can0  TX - -  0C000782   [8]  03 00 00 02 00 00 00 00
16:10:34.598361 can0  RX - -  0C000783   [4]  00 00 00 02
16:10:34.611793 can0  TX - -  0C000782   [8]  03 00 00 02 00 00 00 00
16:10:34.866362 can0  RX - -  0C000783   [4]  00 00 00 02
16:10:34.884840 can0  TX - -  0C000782   [8]  03 00 00 02 00 00 00 00
16:10:35.142367 can0  RX - -  0C000783   [4]  00 00 00 02
16:10:35.160344 can0  TX - -  0C000782   [8]  03 00 00 02 00 00 00 00
16:10:35.417242 can0  RX - -  0C000783   [4]  00 00 00 02
16:10:35.430279 can0  TX - -  0C000782   [8]  03 00 00 02 00 00 00 00
16:10:35.686372 can0  RX - E  0C000783   [4]  00 00 00 02
16:10:35.705718 can0  TX - -  0C000782   [8]  03 00 00 02 00 00 00 00
16:10:35.962376 can0  RX - -  0C000783   [4]  00 00 00 02
16:10:35.967612 can0  TX - -  0C000782   [8]  03 00 00 02 00 00 00 00
16:10:36.222378 can0  RX - -  0C000783   [4]  00 00 00 02
16:10:36.235444 can0  TX - -  0C000782   [8]  03 00 00 02 00 00 00 00
16:10:36.490381 can0  RX B E  0C000783   [4]  00 00 00 02
16:10:36.502693 can0  TX - -  0C000782   [8]  03 00 00 02 00 00 00 00
16:10:36.758387 can0  RX B E  0C000783   [4]  00 00 00 02
16:10:36.775930 can0  TX - -  0C000782   [8]  03 00 00 02 00 00 00 00
16:10:37.030391 can0  RX - -  0C000783   [4]  00 00 00 02
16:10:37.039715 can0  TX - -  0C000782   [8]  03 00 00 02 00 00 00 00
16:10:37.294391 can0  RX - -  0C000783   [4]  00 00 00 02
16:10:37.312234 can0  TX - -  0C000782   [8]  03 00 00 02 00 00 00 00
16:10:37.566394 can0  RX - -  0C000783   [4]  00 00 00 02
16:10:37.581839 can0  TX - -  0C000782   [8]  03 00 00 02 00 00 00 00
16:10:37.838398 can0  RX - -  0C000783   [4]  00 00 00 02
16:10:37.850240 can0  TX - -  0C000782   [8]  03 00 00 02 00 00 00 00
16:10:38.106398 can0  RX - -  0C000783   [4]  00 00 00 02
16:10:38.120904 can0  TX - -  0C000782   [8]  03 00 00 02 00 00 00 00
16:10:38.378404 can0  RX - E  0C000783   [4]  00 00 00 02
16:10:38.387845 can0  TX - -  0C000782   [8]  03 00 00 02 00 00 00 00
16:10:38.642406 can0  RX - -  0C000783   [4]  00 00 00 02
16:10:38.658536 can0  TX - -  0C000782   [8]  03 00 00 02 00 00 00 00
16:10:38.917225 can0  RX - -  0C000783   [4]  00 00 00 02
16:10:38.923852 can0  TX - -  0C000782   [8]  03 00 00 02 00 00 00 00
16:10:39.178414 can0  RX - -  0C000783   [4]  00 00 00 02
16:10:39.195670 can0  TX - -  0C000782   [8]  03 00 00 02 00 00 00 00
16:10:39.450416 can0  RX - -  0C000783   [4]  00 00 00 02
16:10:39.460015 can0  TX - -  0C000782   [8]  03 00 00 02 00 00 00 00
16:10:39.717238 can0  RX - -  0C000783   [4]  00 00 00 02
16:10:39.729527 can0  TX - -  0C000782   [8]  03 00 00 02 00 00 00 00
16:10:39.986422 can0  RX - -  0C000783   [4]  00 00 00 02
16:10:39.993543 can0  TX - -  0C000782   [8]  03 00 00 02 00 00 00 00
16:10:40.250427 can0  RX - -  0C000783   [4]  00 00 00 02
16:10:40.260431 can0  TX - -  0C000782   [8]  03 00 00 02 00 00 00 00
16:10:40.518425 can0  RX B E  0C000783   [4]  00 00 00 02
16:10:40.536684 can0  TX - -  0C000782   [8]  03 00 00 02 00 00 00 00
16:10:40.794429 can0  RX - E  0C000783   [4]  00 00 00 02
16:10:40.805223 can0  TX - -  0C000782   [8]  03 00 00 02 00 00 00 00
16:10:41.062435 can0  RX - -  0C000783   [4]  00 00 00 02
16:10:41.079012 can0  TX - -  0C000782   [8]  03 00 00 02 00 00 00 00
16:10:41.334436 can0  RX - -  0C000783   [4]  00 00 00 02
16:10:41.342569 can0  TX - -  0C000782   [8]  03 00 00 02 00 00 00 00
16:10:41.598441 can0  RX - -  0C000783   [4]  00 00 00 02
16:10:41.617453 can0  TX - -  0C000782   [8]  03 00 00 02 00 00 00 00
16:10:41.874445 can0  RX - -  0C000783   [4]  00 00 00 02
16:10:41.887240 can0  TX - -  0C000782   [8]  03 00 00 02 00 00 00 00
16:10:42.142449 can0  RX - -  0C000783   [4]  00 00 00 02
16:10:42.158359 can0  TX - -  0C000782   [8]  03 00 00 02 00 00 00 00
16:10:42.417236 can0  RX - -  0C000783   [4]  00 00 00 02
16:10:42.439094 can0  TX - -  0C000782   [8]  03 00 00 02 00 00 00 00
16:10:42.694453 can0  RX - -  0C000783   [4]  00 00 00 02
16:10:42.706795 can0  TX - -  0C000782   [8]  03 00 00 02 00 00 00 00
16:10:42.962454 can0  RX - -  0C000783   [4]  00 00 00 02
16:10:42.977158 can0  TX - -  0C000782   [8]  03 00 00 02 00 00 00 00
16:10:43.234460 can0  RX - -  0C000783   [4]  00 00 00 02
16:10:43.240738 can0  TX - -  0C000782   [8]  03 00 00 02 00 00 00 00
16:10:43.498464 can0  RX - -  0C000783   [4]  00 00 00 02
16:10:43.517451 can0  TX - -  0C000782   [8]  03 00 00 02 00 00 00 00
16:10:43.774468 can0  RX B E  0C000783   [4]  00 00 00 02
16:10:43.787915 can0  TX - -  0C000782   [8]  03 00 00 02 00 00 00 00
16:10:44.042466 can0  RX - -  0C000783   [4]  00 00 00 02
16:10:44.061895 can0  TX - -  0C000782   [8]  03 00 00 02 00 00 00 00
16:10:44.318473 can0  RX B E  0C000783   [4]  00 00 00 02
16:10:44.329920 can0  TX - -  0C000782   [8]  03 00 00 02 00 00 00 00
16:10:44.586473 can0  RX - -  0C000783   [4]  00 00 00 02
16:10:44.590921 can0  TX - -  0C000782   [8]  03 00 00 02 00 00 00 00
16:10:44.846476 can0  RX B E  0C000783   [4]  00 00 00 02
16:10:44.858111 can0  TX - -  0C000782   [8]  03 00 00 02 00 00 00 00
16:10:45.117228 can0  RX - -  0C000783   [4]  00 00 00 02
16:10:45.130485 can0  TX - -  0C000782   [8]  03 00 00 02 00 00 00 00
16:10:45.386485 can0  RX - -  0C000783   [4]  00 00 00 02
16:10:45.393958 can0  TX - -  0C000782   [8]  03 00 00 02 00 00 00 00
16:10:45.650485 can0  RX - -  0C000783   [4]  00 00 00 02
16:10:45.663054 can0  TX - -  0C000782   [8]  03 00 00 02 00 00 00 00
16:10:45.918489 can0  RX - -  0C000783   [4]  00 00 00 02
16:10:45.929464 can0  TX - -  0C000782   [8]  03 00 00 02 00 00 00 00
16:10:46.186491 can0  RX - -  0C000783   [4]  00 00 00 02
16:10:46.196166 can0  TX - -  0C000782   [8]  03 00 00 02 00 00 00 00
16:10:46.450496 can0  RX - -  0C000783   [4]  00 00 00 02
16:10:46.453314 can0  TX - -  0C000782   [8]  03 00 00 02 00 00 00 00
16:10:46.710498 can0  RX - -  0C000783   [4]  00 00 00 02
16:10:46.728103 can0  TX - -  0C000782   [8]  03 00 00 02 00 00 00 00
16:10:46.982501 can0  RX - -  0C000783   [4]  00 00 00 02
16:10:46.995002 can0  TX - -  0C000782   [8]  03 00 00 02 00 00 00 00
16:10:47.250507 can0  RX - E  0C000783   [4]  00 00 00 02
16:10:47.256685 can0  TX - -  0C000782   [8]  03 00 00 02 00 00 00 00
16:10:47.517219 can0  RX - -  0C000783   [4]  00 00 00 02
16:10:47.529539 can0  TX - -  0C000782   [8]  03 00 00 02 00 00 00 00
16:10:47.786509 can0  RX B E  0C000783   [4]  00 00 00 02
16:10:47.792771 can0  TX - -  0C000782   [8]  03 00 00 02 00 00 00 00
16:10:48.050514 can0  RX - -  0C000783   [4]  00 00 00 02
16:10:48.066445 can0  TX - -  0C000782   [8]  03 00 00 02 00 00 00 00
16:10:48.322515 can0  RX - -  0C000783   [4]  00 00 00 02
16:10:48.335316 can0  TX - -  0C000782   [8]  03 00 00 02 00 00 00 00
16:10:48.590522 can0  RX - -  0C000783   [4]  00 00 00 02
16:10:48.605261 can0  TX - -  0C000782   [8]  03 00 00 02 00 00 00 00
16:10:48.862521 can0  RX - -  0C000783   [4]  00 00 00 02
16:10:48.869815 can0  TX - -  0C000782   [8]  03 00 00 02 00 00 00 00
16:10:49.126526 can0  RX - -  0C000783   [4]  00 00 00 02
16:10:49.139324 can0  TX - -  0C000782   [8]  03 00 00 02 00 00 00 00
16:10:49.394533 can0  RX - E  0C000783   [4]  00 00 00 02
16:10:49.408880 can0  TX - -  0C000782   [8]  03 00 00 02 00 00 00 00
16:10:49.666532 can0  RX B E  0C000783   [4]  00 00 00 02
16:10:49.675262 can0  TX - -  0C000782   [8]  03 00 00 02 00 00 00 00
16:10:49.930534 can0  RX - -  0C000783   [4]  00 00 00 02
16:10:49.949357 can0  TX - -  0C000782   [8]  03 00 00 02 00 00 00 00
16:10:50.206540 can0  RX - -  0C000783   [4]  00 00 00 02
16:10:50.217495 can0  TX - -  0C000782   [8]  03 00 00 02 00 00 00 00
16:10:50.474539 can0  RX - -  0C000783   [4]  00 00 00 02
16:10:50.484042 can0  TX - -  0C000782   [8]  03 00 00 02 00 00 00 00
16:10:50.738545 can0  RX - -  0C000783   [4]  00 00 00 02
16:10:50.753798 can0  TX - -  0C000782   [8]  03 00 00 02 00 00 00 00
16:10:51.010548 can0  RX - -  0C000783   [4]  00 00 00 02
16:10:51.021743 can0  TX - -  0C000782   [8]  03 00 00 02 00 00 00 00
16:10:51.278551 can0  RX - -  0C000783   [4]  00 00 00 02
16:10:51.291656 can0  TX - -  0C000782   [8]  03 00 00 02 00 00 00 00
16:10:51.546552 can0  RX - -  0C000783   [4]  00 00 00 02
16:10:51.557349 can0  TX - -  0C000782   [8]  03 00 00 02 00 00 00 00
16:10:51.817215 can0  RX - -  0C000783   [4]  00 00 00 02
16:10:51.823340 can0  TX - -  0C000782   [8]  03 00 00 02 00 00 00 00
16:10:52.078562 can0  RX - -  0C000783   [4]  00 00 00 02
16:10:52.091079 can0  TX - -  0C000782   [8]  03 00 00 02 00 00 00 00
16:10:52.346564 can0  RX B E  0C000783   [4]  00 00 00 02
16:10:52.362282 can0  TX - -  0C000782   [8]  03 00 00 02 00 00 00 00
16:10:52.618567 can0  RX - -  0C000783   [4]  00 00 00 02
16:10:52.633792 can0  TX - -  0C000782   [8]  03 00 00 02 00 00 00 00
16:10:52.890572 can0  RX - -  0C000783   [4]  00 00 00 02
16:10:52.902433 can0  TX - -  0C000782   [8]  03 00 00 02 00 00 00 00
16:10:53.158570 can0  RX - -  0C000783   [4]  00 00 00 02
16:10:53.177977 can0  TX - -  0C000782   [8]  03 00 00 02 00 00 00 00
16:10:53.434583 can0  RX - -  0C000783   [4]  00 00 00 02
16:10:53.445582 can0  TX - -  0C000782   [8]  03 00 00 02 00 00 00 00
16:10:53.702580 can0  RX - -  0C000783   [4]  00 00 00 02
16:10:53.705353 can0  TX - -  0C000782   [8]  03 00 00 02 00 00 00 00
16:10:53.962582 can0  RX - E  0C000783   [4]  00 00 00 02
16:10:53.975225 can0  TX - -  0C000782   [8]  03 00 00 02 00 00 00 00
16:10:54.230585 can0  RX - -  0C000783   [4]  00 00 00 02
16:10:54.246068 can0  TX - -  0C000782   [8]  03 00 00 02 00 00 00 00
16:10:54.502588 can0  RX B E  0C000783   [4]  00 00 00 02
16:10:54.506599 can0  TX - -  0C000782   [8]  03 00 00 02 00 00 00 00
16:10:54.762595 can0  RX - E  0C000783   [4]  00 00 00 02
16:10:54.781425 can0  TX - -  0C000782   [8]  03 00 00 02 00 00 00 00
16:10:55.038595 can0  RX - -  0C000783   [4]  00 00 00 02
16:10:55.044752 can0  TX - -  0C000782   [8]  03 00 00 02 00 00 00 00
16:10:55.302598 can0  RX B E  0C000783   [4]  00 00 00 02
16:10:55.309753 can0  TX - -  0C000782   [8]  03 00 00 02 00 00 00 00

16:10:55.373520 can0  RX - -  1C00007E   [0] 
16:10:55.390575 can0  TX - -  1C0004FE   [8]  00 00 00 00 00 00 00 01
16:10:55.393593 can0  RX - -  1C04847E   [0] 
16:10:55.401446 can0  TX - -  1C0484FE   [8]  00 00 00 00 00 00 00 00
16:10:55.405518 can0  RX - E  1E39047E   [0] 
16:10:55.412306 can0  TX - -  1E3904FE   [8]  00 00 00 00 00 00 00 00
16:10:55.417518 can0  RX - E  1F71847E   [0] 
16:10:55.423175 can0  TX - -  1F7184FE   [8]  00 00 00 00 00 00 00 00
16:10:55.426198 can0  RX - -  1C02047E   [8]  00 01 8E DC 00 02 00 03
16:10:55.426875 can0  RX - -  1C02847E   [8]  00 00 00 97 01 00 40 10
16:10:55.427389 can0  RX - -  1C03047E   [8]  01 00 00 2F 00 00 40 10
16:10:55.427964 can0  RX - -  1C03847E   [8]  00 00 40 10 01 08 00 10
16:10:55.483942 can0  TX - -  1C0384FE   [8]  00 01 8E DC 00 02 85 00
16:10:55.489685 can0  RX - -  18000A05   [2]  40 05
16:10:55.504259 can0  TX - -  18000A04   [8]  40 05 00 00 00 08 00 01
16:10:55.509682 can0  RX - -  18000985   [2]  03 00
16:10:55.523773 can0  TX - -  18002084   [4]  02 00 00 00
16:10:55.526170 can0  RX - -  18002085   [8]  02 00 00 00 4D 4F 42 49
16:10:55.526712 can0  TX - -  18000984   [8]  03 00 00 00 00 03 00 01
16:10:55.529704 can0  RX - -  18000D05   [2]  01 01
16:10:55.543872 can0  TX - -  18002084   [4]  02 00 00 04
16:10:55.546165 can0  RX - E  18002085   [8]  02 00 00 04 4C 45 20 53
16:10:55.546756 can0  TX - -  18000D04   [3]  01 01 01
16:10:55.549699 can0  RX - E  18000D05   [2]  01 00
16:10:55.563910 can0  TX - -  18002084   [4]  02 00 00 08
16:10:55.566168 can0  RX B E  18002085   [8]  02 00 00 08 54 41 54 49

16:10:55.566708 can0  RX B E  0C000783   [4]  00 00 00 02

16:10:55.567125 can0  TX - -  18000D04   [3]  01 00 00
16:10:55.569718 can0  RX B -  18000D05   [2]  02 01
16:10:55.583997 can0  TX - -  18002084   [4]  02 00 00 0C
16:10:55.586106 can0  RX B E  18002085   [7]  02 00 00 0C 4F 4E 00

16:10:55.586509 can0  TX - -  0C000782   [8]  03 00 00 02 00 00 00 00

16:10:55.593754 can0  TX - -  18000D04   [3]  02 01 02
16:10:55.597710 can0  RX - E  18000D05   [2]  02 00
16:10:55.617415 can0  TX - -  18000D04   [3]  02 00 00
16:10:55.621700 can0  RX - -  18000D05   [2]  03 01
16:10:55.634707 can0  TX - -  18000D04   [3]  03 01 04
16:10:55.637698 can0  RX - E  18000D05   [2]  03 00
16:10:55.654757 can0  TX - -  18000D04   [3]  03 00 00
16:10:55.657698 can0  RX - E  18000D05   [2]  04 01
16:10:55.665749 can0  TX - -  18000D04   [2]  04 01
16:10:55.669856 can0  RX - -  18000985   [4]  80 02 00 00
16:10:55.685994 can0  TX - -  18000984   [8]  80 02 00 00 00 09 00 01
16:10:55.690413 can0  RX - E  18000985   [4]  80 02 00 09
16:10:55.690941 can0  RX - E  18002485   [4]  40 03 00 00
16:10:55.706013 can0  TX - -  18000984   [4]  80 02 00 09
16:10:55.709869 can0  RX - E  18000985   [4]  81 02 00 00
16:10:55.717536 can0  TX - -  18002484   [6]  40 03 00 00 00 02
16:10:55.721874 can0  RX - -  18002485   [4]  40 01 00 00
16:10:55.726044 can0  TX - -  18000984   [4]  81 02 00 00
16:10:55.729856 can0  RX - E  18000985   [4]  82 02 00 00
16:10:55.736019 can0  TX - -  18002484   [8]  40 01 00 00 00 0D 00 00
16:10:55.741881 can0  RX - -  18002485   [4]  40 01 01 00
16:10:55.746082 can0  TX - -  18000984   [4]  82 02 00 00
16:10:55.755837 can0  TX - -  18002484   [8]  40 01 01 00 00 05 00 00
16:10:55.765682 can0  RX - E  18002505   [2]  01 01
16:10:55.775836 can0  TX - -  18002504   [4]  01 01 01 01
16:10:55.777706 can0  RX - E  18002505   [2]  01 00
16:10:55.785804 can0  TX - -  18002504   [3]  01 00 00
16:10:55.789710 can0  RX - -  18002505   [2]  02 01
16:10:55.795744 can0  TX - -  18002504   [4]  02 01 02 01
16:10:55.798189 can0  RX - -  18002505   [2]  02 00
16:10:55.805839 can0  TX - -  18002504   [3]  02 00 00
16:10:55.809717 can0  RX - -  18002505   [2]  03 01
16:10:55.817452 can0  TX - -  18002504   [4]  03 01 02 06
16:10:55.822196 can0  RX - E  18002505   [2]  03 00
16:10:55.825965 can0  TX - -  18002504   [3]  03 00 00
16:10:55.829717 can0  RX - -  18002505   [2]  04 01
16:10:55.835603 can0  TX - -  18002504   [4]  04 01 02 06
16:10:55.838208 can0  RX - -  18002505   [2]  04 00

16:10:55.842622 can0  RX B E  0C000783   [4]  00 00 00 02

16:10:55.846501 can0  TX - -  18002504   [3]  04 00 00
16:10:55.849712 can0  RX - E  18002505   [2]  05 01

16:10:55.857527 can0  TX - -  0C000782   [8]  03 00 00 02 00 00 00 00

16:10:55.868482 can0  TX - -  18002504   [4]  05 01 02 08
16:10:55.874215 can0  RX - -  18002505   [2]  05 00
16:10:55.879384 can0  TX - -  18002504   [3]  05 00 00
16:10:55.881710 can0  RX B E  18002505   [2]  06 01
16:10:55.890491 can0  TX - -  18002504   [4]  06 01 02 01
16:10:55.894224 can0  RX - E  18002505   [2]  06 00
16:10:55.901611 can0  TX - -  18002504   [3]  06 00 00
16:10:55.905711 can0  RX - E  18002505   [2]  07 01
16:10:55.912686 can0  TX - -  18002504   [4]  07 01 02 01
16:10:55.918235 can0  RX B E  18002505   [2]  07 00
16:10:55.933838 can0  TX - -  18002504   [3]  07 00 00
16:10:55.937715 can0  RX - E  18002505   [2]  08 01
16:10:55.943934 can0  TX - -  18002504   [2]  08 01
16:10:55.945862 can0  RX B E  18002505   [4]  01 02 00 00
16:10:55.953977 can0  TX - -  18002504   [5]  01 02 00 00 FF
16:10:55.957864 can0  RX - -  18002505   [4]  01 02 01 00
16:10:55.964001 can0  TX - -  18002504   [5]  01 02 01 00 0F
16:10:55.965868 can0  RX B E  18002505   [4]  01 02 02 00
16:10:55.974070 can0  TX - -  18002504   [5]  01 02 02 00 0F
16:10:55.977867 can0  RX - -  18002485   [4]  40 04 00 00
16:10:55.983965 can0  TX - -  18002484   [6]  40 04 00 00 01 00
16:10:55.985711 can0  RX B E  18002405   [2]  03 00
16:10:55.993968 can0  TX - -  18002404   [6]  03 00 00 00 00 01
16:10:56.001835 can0  RX - E  18002485   [4]  02 00 00 00
16:10:56.017389 can0  TX - -  18002484   [8]  02 00 00 00 33 33 35 20
16:10:56.021876 can0  RX - -  18002485   [4]  02 00 00 04
16:10:56.033740 can0  TX - -  18002484   [8]  02 00 00 04 31 30 35 2D
16:10:56.037879 can0  RX - E  18002485   [4]  02 00 00 08
16:10:56.043939 can0  TX - -  18002484   [8]  02 00 00 08 33 20 44 42
16:10:56.049885 can0  RX - E  18002485   [4]  02 00 00 0C
16:10:56.053818 can0  TX - -  18002484   [8]  02 00 00 0C 00 00 00 00

16:10:56.117247 can0  RX - -  0C000783   [4]  00 00 00 02
16:10:56.125758 can0  TX - -  0C000782   [8]  03 00 00 02 00 00 00 00

16:10:56.309818 can0  RX - E  0C000785   [4]  00 00 00 04
16:10:56.333173 can0  TX - -  0C000784   [8]  03 00 00 04 00 00 00 00
16:10:56.382609 can0  RX - E  0C000783   [4]  00 00 00 02
16:10:56.393936 can0  TX - -  0C000782   [8]  03 00 00 02 00 00 00 00
16:10:56.589809 can0  RX - -  0C000785   [4]  00 00 00 04
16:10:56.599973 can0  TX - -  0C000784   [8]  03 00 00 04 00 00 00 00
16:10:56.650612 can0  RX - -  0C000783   [4]  00 00 00 02
16:10:56.660428 can0  TX - -  0C000782   [8]  03 00 00 02 00 00 00 00
16:10:56.857803 can0  RX - E  0C000785   [4]  00 00 00 04
16:10:56.872024 can0  TX - -  0C000784   [8]  03 00 00 04 00 00 00 00
16:10:56.917233 can0  RX - -  0C000783   [4]  00 00 00 02
16:10:56.932669 can0  TX - -  0C000782   [8]  03 00 00 02 00 00 00 00
16:10:57.129794 can0  RX - -  0C000785   [4]  00 00 00 04
16:10:57.135253 can0  TX - -  0C000784   [8]  03 00 00 04 00 00 00 00
16:10:57.190619 can0  RX - E  0C000783   [4]  00 00 00 02
16:10:57.201579 can0  TX - -  0C000782   [8]  03 00 00 02 00 00 00 00
16:10:57.333974 can0  RX - -  14002405   [6]  03 00 00 08 00 01
16:10:57.349010 can0  TX - -  14002404   [6]  03 00 00 08 00 01
16:10:57.458623 can0  RX - -  0C000783   [4]  00 00 00 02
16:10:57.473763 can0  TX - -  0C000782   [8]  03 00 00 02 00 00 00 00
16:10:57.605783 can0  RX - -  0C000785   [4]  00 00 00 04
16:10:57.625311 can0  TX - -  0C000784   [8]  03 00 00 04 00 00 00 00
16:10:57.730622 can0  RX - -  0C000783   [4]  00 00 00 02
16:10:57.749488 can0  TX - -  0C000782   [8]  03 00 00 02 00 00 00 00
16:10:57.881776 can0  RX - -  0C000785   [4]  00 00 00 04
16:10:57.886381 can0  TX - -  0C000784   [8]  03 00 00 04 00 00 00 00
16:10:58.006625 can0  RX - -  0C000783   [4]  00 00 00 02
16:10:58.025417 can0  TX - -  0C000782   [8]  03 00 00 02 00 00 00 00
16:10:58.141775 can0  RX - E  0C000785   [4]  00 00 00 04
16:10:58.161135 can0  TX - -  0C000784   [8]  03 00 00 04 00 00 00 00
16:10:58.282630 can0  RX - -  0C000783   [4]  00 00 00 02
16:10:58.303987 can0  TX - -  0C000782   [8]  03 00 00 02 00 00 00 00
16:10:58.417762 can0  RX - -  0C000785   [4]  00 00 00 04
16:10:58.431567 can0  TX - -  0C000784   [8]  03 00 00 04 00 00 00 00
16:10:58.558636 can0  RX - -  0C000783   [4]  00 00 00 02
16:10:58.563935 can0  TX - -  0C000782   [8]  03 00 00 02 00 00 00 00
16:10:58.685755 can0  RX - -  0C000785   [4]  00 00 00 04
16:10:58.701569 can0  TX - -  0C000784   [8]  03 00 00 04 00 00 00 00
16:10:58.818636 can0  RX - -  0C000783   [4]  00 00 00 02
16:10:58.835432 can0  TX - -  0C000782   [8]  03 00 00 02 00 00 00 00
16:10:58.957751 can0  RX - E  0C000785   [4]  00 00 00 04
16:10:58.969147 can0  TX - -  0C000784   [8]  03 00 00 04 00 00 00 00
16:10:59.090644 can0  RX - -  0C000783   [4]  00 00 00 02
16:10:59.103032 can0  TX - -  0C000782   [8]  03 00 00 02 00 00 00 00
16:10:59.225744 can0  RX - -  0C000785   [4]  00 00 00 04
16:10:59.240956 can0  TX - -  0C000784   [8]  03 00 00 04 00 00 00 00
16:10:59.358644 can0  RX - -  0C000783   [4]  00 00 00 02
16:10:59.364680 can0  TX - -  0C000782   [8]  03 00 00 02 00 00 00 00
16:10:59.497737 can0  RX - -  0C000785   [4]  00 00 00 04
16:10:59.513803 can0  TX - -  0C000784   [8]  03 00 00 04 00 00 00 00
16:10:59.622646 can0  RX - -  0C000783   [4]  00 00 00 02
16:10:59.637512 can0  TX - -  0C000782   [8]  03 00 00 02 00 00 00 00
16:10:59.769730 can0  RX B E  0C000785   [4]  00 00 00 04
16:10:59.775801 can0  TX - -  0C000784   [8]  03 00 00 04 00 00 00 00
16:10:59.894651 can0  RX - -  0C000783   [4]  00 00 00 02
16:10:59.911181 can0  TX - -  0C000782   [8]  03 00 00 02 00 00 00 00
16:11:00.033724 can0  RX - -  0C000785   [4]  00 00 00 04
16:11:00.048438 can0  TX - -  0C000784   [8]  03 00 00 04 00 00 00 00
16:11:00.166651 can0  RX - -  0C000783   [4]  00 00 00 02
16:11:00.176681 can0  TX - -  0C000782   [8]  03 00 00 02 00 00 00 00
16:11:00.305717 can0  RX - -  0C000785   [4]  00 00 00 04
16:11:00.317468 can0  TX - -  0C000784   [8]  03 00 00 04 00 00 00 00
16:11:00.434658 can0  RX - E  0C000783   [4]  00 00 00 02
16:11:00.440704 can0  TX - -  0C000782   [8]  03 00 00 02 00 00 00 00
16:11:00.573711 can0  RX - -  0C000785   [4]  00 00 00 04
16:11:00.586243 can0  TX - -  0C000784   [8]  03 00 00 04 00 00 00 00
16:11:00.698659 can0  RX - E  0C000783   [4]  00 00 00 02
16:11:00.714727 can0  TX - -  0C000782   [8]  03 00 00 02 00 00 00 00
16:11:00.841703 can0  RX - -  0C000785   [4]  00 00 00 04
16:11:00.862598 can0  TX - -  0C000784   [8]  03 00 00 04 00 00 00 00
16:11:00.970663 can0  RX - -  0C000783   [4]  00 00 00 02
16:11:00.978243 can0  TX - -  0C000782   [8]  03 00 00 02 00 00 00 00
16:11:01.117698 can0  RX - -  0C000785   [4]  00 00 00 04
16:11:01.137341 can0  TX - -  0C000784   [8]  03 00 00 04 00 00 00 00
16:11:01.234662 can0  RX - -  0C000783   [4]  00 00 00 02
16:11:01.249388 can0  TX - -  0C000782   [8]  03 00 00 02 00 00 00 00
16:11:01.393693 can0  RX - -  0C000785   [4]  00 00 00 04
16:11:01.400370 can0  TX - -  0C000784   [8]  03 00 00 04 00 00 00 00
16:11:01.506669 can0  RX - -  0C000783   [4]  00 00 00 02
16:11:01.517492 can0  TX - -  0C000782   [8]  03 00 00 02 00 00 00 00
16:11:01.657684 can0  RX - -  0C000785   [4]  00 00 00 04
16:11:01.672980 can0  TX - -  0C000784   [8]  03 00 00 04 00 00 00 00
16:11:01.774668 can0  RX B E  0C000783   [4]  00 00 00 02
16:11:01.785743 can0  TX - -  0C000782   [8]  03 00 00 02 00 00 00 00
16:11:01.929680 can0  RX - -  0C000785   [4]  00 00 00 04
16:11:01.934767 can0  TX - -  0C000784   [8]  03 00 00 04 00 00 00 00
16:11:02.042675 can0  RX - -  0C000783   [4]  00 00 00 02
16:11:02.052432 can0  TX - -  0C000782   [8]  03 00 00 02 00 00 00 00
16:11:02.189672 can0  RX - -  0C000785   [4]  00 00 00 04
16:11:02.199975 can0  TX - -  0C000784   [8]  03 00 00 04 00 00 00 00
16:11:02.306678 can0  RX - -  0C000783   [4]  00 00 00 02
16:11:02.317506 can0  TX - -  0C000782   [8]  03 00 00 02 00 00 00 00
16:11:02.457664 can0  RX - -  0C000785   [4]  00 00 00 04
16:11:02.473640 can0  TX - -  0C000784   [8]  03 00 00 04 00 00 00 00
16:11:02.574678 can0  RX - -  0C000783   [4]  00 00 00 02
16:11:02.581639 can0  TX - -  0C000782   [8]  03 00 00 02 00 00 00 00
16:11:02.729656 can0  RX - -  0C000785   [4]  00 00 00 04
16:11:02.741154 can0  TX - -  0C000784   [8]  03 00 00 04 00 00 00 00
16:11:02.838683 can0  RX - -  0C000783   [4]  00 00 00 02
16:11:02.849510 can0  TX - -  0C000782   [8]  03 00 00 02 00 00 00 00
16:11:02.997655 can0  RX - -  0C000785   [4]  00 00 00 04
16:11:03.001045 can0  TX - -  0C000784   [8]  03 00 00 04 00 00 00 00
16:11:03.106687 can0  RX - -  0C000783   [4]  00 00 00 02
16:11:03.117521 can0  TX - -  0C000782   [8]  03 00 00 02 00 00 00 00
16:11:03.257645 can0  RX - E  0C000785   [4]  00 00 00 04
16:11:03.272077 can0  TX - -  0C000784   [8]  03 00 00 04 00 00 00 00
16:11:03.374687 can0  RX - -  0C000783   [4]  00 00 00 02
16:11:03.383291 can0  TX - -  0C000782   [8]  03 00 00 02 00 00 00 00
16:11:03.529638 can0  RX - -  0C000785   [4]  00 00 00 04
16:11:03.542403 can0  TX - -  0C000784   [8]  03 00 00 04 00 00 00 00
16:11:03.638692 can0  RX - -  0C000783   [4]  00 00 00 02
16:11:03.659395 can0  TX - -  0C000782   [8]  03 00 00 02 00 00 00 00
16:11:03.797633 can0  RX - E  0C000785   [4]  00 00 00 04
16:11:03.805965 can0  TX - -  0C000784   [8]  03 00 00 04 00 00 00 00
16:11:03.917228 can0  RX - -  0C000783   [4]  00 00 00 02
16:11:03.928704 can0  TX - -  0C000782   [8]  03 00 00 02 00 00 00 00
16:11:04.061626 can0  RX - -  0C000785   [4]  00 00 00 04
16:11:04.074048 can0  TX - -  0C000784   [8]  03 00 00 04 00 00 00 00
16:11:04.186701 can0  RX - -  0C000783   [4]  00 00 00 02
16:11:04.197232 can0  TX - -  0C000782   [8]  03 00 00 02 00 00 00 00
16:11:04.329621 can0  RX - -  0C000785   [4]  00 00 00 04
16:11:04.344875 can0  TX - -  0C000784   [8]  03 00 00 04 00 00 00 00
16:11:04.454700 can0  RX - -  0C000783   [4]  00 00 00 02
16:11:04.469161 can0  TX - -  0C000782   [8]  03 00 00 02 00 00 00 00
16:11:04.601611 can0  RX - -  0C000785   [4]  00 00 00 04
16:11:04.617450 can0  TX - -  0C000784   [8]  03 00 00 04 00 00 00 00
16:11:04.726706 can0  RX - -  0C000783   [4]  00 00 00 02
16:11:04.733868 can0  TX - -  0C000782   [8]  03 00 00 02 00 00 00 00
16:11:04.873605 can0  RX - -  0C000785   [4]  00 00 00 04
16:11:04.887192 can0  TX - -  0C000784   [8]  03 00 00 04 00 00 00 00
16:11:04.990709 can0  RX - -  0C000783   [4]  00 00 00 02
16:11:05.007440 can0  TX - -  0C000782   [8]  03 00 00 02 00 00 00 00
16:11:05.141601 can0  RX - -  0C000785   [4]  00 00 00 04
16:11:05.154206 can0  TX - -  0C000784   [8]  03 00 00 04 00 00 00 00
16:11:05.262713 can0  RX - -  0C000783   [4]  00 00 00 02
16:11:05.278282 can0  TX - -  0C000782   [8]  03 00 00 02 00 00 00 00
16:11:05.409594 can0  RX - -  0C000785   [4]  00 00 00 04
16:11:05.429154 can0  TX - -  0C000784   [8]  03 00 00 04 00 00 00 00
16:11:05.534707 can0  RX - E  0C000783   [4]  00 00 00 02
16:11:05.546302 can0  TX - -  0C000782   [8]  03 00 00 02 00 00 00 00
16:11:05.685585 can0  RX - -  0C000785   [4]  00 00 00 04
16:11:05.695156 can0  TX - -  0C000784   [8]  03 00 00 04 00 00 00 00
16:11:05.802716 can0  RX - -  0C000783   [4]  00 00 00 02
16:11:05.816568 can0  TX - -  0C000782   [8]  03 00 00 02 00 00 00 00
16:11:05.877510 can0  RX - E  08002505   [3]  01 00 01
16:11:05.892770 can0  TX - -  00080300   [6]  00 00 40 05 00 08
16:11:05.894834 can0  RX B E  0009533C   [6]  00 00 40 05 00 08
16:11:05.896938 can0  TX - -  18002502   [3]  01 00 01
16:11:05.909510 can0  RX - E  08002505   [3]  01 00 02
16:11:05.941507 can0  RX - -  08002505   [3]  01 00 03

16:11:05.949580 can0  RX B E  0C000785   [4]  00 00 00 04
16:11:05.969144 can0  TX - -  0C000784   [8]  03 00 00 04 00 00 00 00

16:11:05.973579 can0  RX - -  08002505   [3]  01 00 04
16:11:06.005507 can0  RX - E  08002505   [3]  01 00 05
16:11:06.037505 can0  RX - -  08002505   [3]  01 00 04
16:11:06.069502 can0  RX - E  08002505   [3]  01 00 06
16:11:06.101518 can0  RX - E  08002505   [3]  01 00 0E
16:11:06.133519 can0  RX - -  08002505   [3]  01 00 0F
16:11:06.143107 can0  TX - -  00080300   [6]  00 00 40 05 00 70
16:11:06.145156 can0  RX B E  0009533C   [6]  00 00 40 05 00 70
16:11:06.150721 can0  RX B E  0C000783   [4]  00 00 00 02
16:11:06.154970 can0  TX - -  18002502   [3]  01 00 0E
16:11:06.165502 can0  RX - E  08002505   [3]  01 00 11

16:11:06.173015 can0  TX - -  0C000782   [8]  03 00 00 02 00 00 00 00

16:11:06.225572 can0  RX - -  0C000785   [4]  00 00 00 04

16:11:06.229502 can0  RX B E  08002505   [3]  01 00 12

16:11:06.232869 can0  TX - -  0C000784   [8]  03 00 00 04 00 00 00 00

16:11:06.261505 can0  RX - E  08002505   [3]  01 00 10
16:11:06.293521 can0  RX - -  08002505   [3]  01 00 0F
16:11:06.325503 can0  RX - -  08002505   [3]  01 00 10
16:11:06.357495 can0  RX - E  08002505   [3]  01 00 11
16:11:06.389505 can0  RX - E  08002505   [3]  01 00 12
16:11:06.393768 can0  TX - -  00080300   [6]  00 00 40 05 00 88
16:11:06.395808 can0  RX B E  0009533C   [6]  00 00 40 05 00 88
16:11:06.402200 can0  TX - -  18002502   [3]  01 00 11
16:11:06.421492 can0  RX - -  08002505   [3]  01 00 13
16:11:06.453512 can0  RX - -  08002505   [3]  01 00 14
16:11:06.485495 can0  RX - E  08002505   [3]  01 00 15

16:11:06.489567 can0  RX - -  0C000785   [4]  00 00 00 04
16:11:06.499608 can0  TX - -  0C000784   [8]  03 00 00 04 00 00 00 00

16:11:06.517492 can0  RX - E  08002505   [3]  01 00 18
16:11:06.549497 can0  RX - E  08002505   [3]  01 00 19
16:11:06.581504 can0  RX - -  08002505   [3]  01 00 1A
16:11:06.644327 can0  TX - -  00080300   [6]  00 00 40 05 00 D0
16:11:06.645505 can0  RX - -  08002505   [3]  01 00 1C
16:11:06.647059 can0  RX - E  0009533C   [6]  00 00 40 05 00 D0
16:11:06.658727 can0  RX - E  0C000783   [4]  00 00 00 02
16:11:06.661103 can0  TX - -  18002502   [3]  01 00 1A
16:11:06.677493 can0  RX - E  08002505   [3]  01 00 1D
16:11:06.679340 can0  TX - -  0C000782   [8]  03 00 00 02 00 00 00 00
16:11:06.709489 can0  RX - E  08002505   [3]  01 00 1E
16:11:06.741490 can0  RX - -  08002505   [3]  01 00 1C
16:11:06.757560 can0  RX B E  0C000785   [4]  00 00 00 04
16:11:06.769939 can0  TX - -  0C000784   [8]  03 00 00 04 00 00 00 00
16:11:06.773585 can0  RX - E  08002505   [3]  01 00 1D
16:11:06.805490 can0  RX - E  08002505   [3]  01 00 1E
16:11:06.837487 can0  RX - -  08002505   [3]  01 00 1C
16:11:06.894954 can0  TX - -  00080300   [6]  00 00 40 05 00 E0
16:11:06.896998 can0  RX - -  0009533C   [6]  00 00 40 05 00 E0
16:11:06.907677 can0  TX - -  18002502   [3]  01 00 1C
16:11:06.933481 can0  RX - -  08002505   [3]  01 00 1E
16:11:06.965484 can0  RX - -  08002505   [3]  01 00 1C

16:11:07.025552 can0  RX - -  0C000785   [4]  00 00 00 04

16:11:07.029479 can0  RX B E  08002505   [3]  01 00 1D

16:11:07.041558 can0  TX - -  0C000784   [8]  03 00 00 04 00 00 00 00

16:11:07.061484 can0  RX B E  08002505   [3]  01 00 1C
16:11:07.125480 can0  RX - -  08002505   [3]  01 00 1D
16:11:07.145453 can0  TX - -  00080300   [6]  00 00 40 05 00 E8
16:11:07.147498 can0  RX - -  0009533C   [6]  00 00 40 05 00 E8
16:11:07.154959 can0  TX - -  18002502   [3]  01 00 1D
16:11:07.157495 can0  RX - -  08002505   [3]  01 00 1E
16:11:07.189480 can0  RX - E  08002505   [3]  01 00 20
16:11:07.253474 can0  RX - -  08002505   [3]  01 00 21
16:11:07.285475 can0  RX - E  08002505   [3]  01 00 22

16:11:07.297546 can0  RX - E  0C000785   [4]  00 00 00 04
16:11:07.308114 can0  TX - -  0C000784   [8]  03 00 00 04 00 00 00 00

16:11:07.396068 can0  TX - -  00080300   [6]  00 00 40 05 01 10
16:11:07.398123 can0  RX B E  0009533C   [6]  00 00 40 05 01 10
16:11:07.405763 can0  TX - -  18002502   [3]  01 00 22

16:11:07.565539 can0  RX - -  0C000785   [4]  00 00 00 04
16:11:07.571315 can0  TX - -  0C000784   [8]  03 00 00 04 00 00 00 00

16:11:07.662739 can0  RX - E  0C000783   [4]  00 00 00 02
16:11:07.681725 can0  TX - -  0C000782   [8]  03 00 00 02 00 00 00 00

16:11:07.765466 can0  RX B E  08002505   [3]  01 00 23
16:11:07.776309 can0  TX - -  00080300   [6]  00 00 40 05 01 18
16:11:07.778307 can0  RX - -  0009533C   [6]  00 00 40 05 01 18
16:11:07.784635 can0  TX - -  18002502   [3]  01 00 23
16:11:07.797464 can0  RX - E  08002505   [3]  01 00 24

16:11:07.825533 can0  RX B E  0C000785   [4]  00 00 00 04

16:11:07.829460 can0  RX - -  08002505   [3]  01 00 23

16:11:07.855143 can0  TX - -  0C000784   [8]  03 00 00 04 00 00 00 00

16:11:07.861463 can0  RX - E  08002505   [3]  01 00 24
16:11:07.925458 can0  RX - -  08002505   [3]  01 00 26
16:11:07.957456 can0  RX - -  08002505   [3]  01 00 28
16:11:07.989459 can0  RX - E  08002505   [3]  01 00 2B
16:11:08.021455 can0  RX - -  08002505   [3]  01 00 2C
16:11:08.026672 can0  TX - -  00080300   [6]  00 00 40 05 01 58
16:11:08.028672 can0  RX - -  0009533C   [6]  00 00 40 05 01 58
16:11:08.031849 can0  TX - -  18002502   [3]  01 00 2B
16:11:08.085454 can0  RX - E  08002505   [3]  01 00 34

16:11:08.109528 can0  RX - E  0C000785   [4]  00 00 00 04

16:11:08.117454 can0  RX - -  08002505   [3]  01 00 35

16:11:08.129511 can0  TX - -  0C000784   [8]  03 00 00 04 00 00 00 00

16:11:08.149464 can0  RX - E  08002505   [3]  01 00 38
16:11:08.181454 can0  RX - E  08002505   [3]  01 00 39
16:11:08.213452 can0  RX - E  08002505   [3]  01 00 3B
16:11:08.245454 can0  RX - E  08002505   [3]  01 00 3D
16:11:08.277453 can0  TX - -  00080300   [6]  00 00 40 05 01 E8
16:11:08.277996 can0  RX - E  08002505   [3]  01 00 3E
16:11:08.279506 can0  RX - -  0009533C   [6]  00 00 40 05 01 E8
16:11:08.286745 can0  RX - E  0C000783   [4]  00 00 00 02
16:11:08.309452 can0  RX - E  08002505   [3]  01 00 41
16:11:08.320908 can0  TX - -  18002502   [3]  01 00 3D
16:11:08.341452 can0  RX - E  08002505   [3]  01 00 40
16:11:08.342793 can0  TX - -  0C000782   [8]  03 00 00 02 00 00 00 00
16:11:08.373457 can0  RX - E  08002505   [3]  01 00 3F
16:11:08.385522 can0  RX - E  0C000785   [4]  00 00 00 04
16:11:08.421556 can0  TX - -  0C000784   [8]  03 00 00 04 00 00 00 00
16:11:08.469449 can0  RX - E  08002505   [3]  01 00 40
16:11:08.501445 can0  RX - E  08002505   [3]  01 00 41
16:11:08.565437 can0  RX - -  08002505   [3]  01 00 42
16:11:08.567087 can0  TX - -  00080300   [6]  00 00 40 05 02 00
16:11:08.569135 can0  RX - E  0009533C   [6]  00 00 40 05 02 00
16:11:08.577770 can0  TX - -  18002502   [3]  01 00 40
16:11:08.629438 can0  RX - -  08002505   [3]  01 00 43
16:11:08.677510 can0  RX - E  0C000785   [4]  00 00 00 04
16:11:08.680541 can0  TX - -  0C000784   [8]  03 00 00 04 00 00 00 00
16:11:08.725433 can0  RX - -  08002505   [3]  01 00 44
16:11:08.757431 can0  RX - E  08002505   [3]  01 00 46
16:11:08.817489 can0  TX - -  00080300   [6]  00 00 40 05 02 30
16:11:08.819544 can0  RX B E  0009533C   [6]  00 00 40 05 02 30
16:11:08.824979 can0  TX - -  18002502   [3]  01 00 46
16:11:08.937509 can0  RX - -  0C000785   [4]  00 00 00 04
16:11:08.948832 can0  TX - -  0C000784   [8]  03 00 00 04 00 00 00 00
16:11:09.078757 can0  RX - -  0C000783   [4]  00 00 00 02
16:11:09.084888 can0  TX - -  0C000782   [8]  03 00 00 02 00 00 00 00
16:11:09.141435 can0  RX - -  08002505   [3]  01 00 47
16:11:09.145621 can0  TX - -  00080300   [6]  00 00 40 05 02 38
16:11:09.147664 can0  RX - E  0009533C   [6]  00 00 40 05 02 38
16:11:09.154491 can0  TX - -  18002502   [3]  01 00 47
16:11:09.173429 can0  RX - E  08002505   [3]  01 00 48
16:11:09.205512 can0  RX - E  0C000785   [4]  00 00 00 04
16:11:09.205994 can0  RX - E  08002505   [3]  01 00 49
16:11:09.225214 can0  TX - -  0C000784   [8]  03 00 00 04 00 00 00 00
16:11:09.237420 can0  RX - E  08002505   [3]  01 00 46
16:11:09.269429 can0  RX - E  08002505   [3]  01 00 48
16:11:09.333422 can0  RX - -  08002505   [3]  01 00 49
16:11:09.410758 can0  RX - E  0C000783   [4]  00 00 00 02
16:11:09.412462 can0  TX - -  00080300   [6]  00 00 40 05 02 48
16:11:09.417421 can0  RX - -  0009533C   [6]  00 00 40 05 02 48
16:11:09.423436 can0  TX - -  18002502   [3]  01 00 49

16:11:09.453932 can0  TX - -  0C000782   [8]  03 00 00 02 00 00 00 00
16:11:09.481495 can0  RX - E  0C000785   [4]  00 00 00 04
16:11:09.486684 can0  TX - -  0C000784   [8]  03 00 00 04 00 00 00 00
16:11:09.710762 can0  RX - -  0C000783   [4]  00 00 00 02
16:11:09.729581 can0  TX - -  0C000782   [8]  03 00 00 02 00 00 00 00
16:11:09.741488 can0  RX - E  0C000785   [4]  00 00 00 04
16:11:09.762542 can0  TX - -  0C000784   [8]  03 00 00 04 00 00 00 00
16:11:09.986763 can0  RX - -  0C000783   [4]  00 00 00 02
16:11:09.997312 can0  TX - -  0C000782   [8]  03 00 00 02 00 00 00 00
16:11:10.017480 can0  RX - -  0C000785   [4]  00 00 00 04
16:11:10.029956 can0  TX - -  0C000784   [8]  03 00 00 04 00 00 00 00

16:11:10.165400 can0  RX - -  08002505   [3]  01 00 46
16:11:10.185250 can0  TX - -  00080300   [6]  00 00 40 05 02 30
16:11:10.187300 can0  RX B E  0009533C   [6]  00 00 40 05 02 30
16:11:10.195507 can0  TX - -  18002502   [3]  01 00 46
16:11:10.197412 can0  RX - -  08002505   [3]  01 00 47
16:11:10.229395 can0  RX - -  08002505   [3]  01 00 44
16:11:10.261398 can0  RX - E  08002505   [3]  01 00 45

16:11:10.285474 can0  RX - E  0C000785   [4]  00 00 00 04
16:11:10.293951 can0  TX - -  0C000784   [8]  03 00 00 04 00 00 00 00

16:11:10.325396 can0  RX - -  08002505   [3]  01 00 44
16:11:10.357400 can0  RX B E  08002505   [3]  01 00 42
16:11:10.389402 can0  RX - -  08002505   [3]  01 00 41
16:11:10.435653 can0  TX - -  00080300   [6]  00 00 40 05 02 08
16:11:10.437702 can0  RX B E  0009533C   [6]  00 00 40 05 02 08
16:11:10.441784 can0  TX - -  18002502   [3]  01 00 41
16:11:10.453401 can0  RX - -  08002505   [3]  01 00 3F
16:11:10.517397 can0  RX - E  08002505   [3]  01 00 3C

16:11:10.549482 can0  RX - E  0C000785   [4]  00 00 00 04

16:11:10.550158 can0  RX B -  08002505   [3]  01 00 3B

16:11:10.565361 can0  TX - -  0C000784   [8]  03 00 00 04 00 00 00 00

16:11:10.581403 can0  RX - E  08002505   [3]  01 00 38
16:11:10.613394 can0  RX - E  08002505   [3]  01 00 37
16:11:10.645396 can0  RX - E  08002505   [3]  01 00 35
16:11:10.686234 can0  TX - -  00080300   [6]  00 00 40 05 01 A8
16:11:10.688271 can0  RX - -  0009533C   [6]  00 00 40 05 01 A8

16:11:10.698769 can0  RX - E  0C000783   [4]  00 00 00 02

16:11:10.700823 can0  TX - -  18002502   [3]  01 00 35

16:11:10.720210 can0  TX - -  0C000782   [8]  03 00 00 02 00 00 00 00

16:11:10.821459 can0  RX - -  0C000785   [4]  00 00 00 04
16:11:10.824735 can0  TX - -  0C000784   [8]  03 00 00 04 00 00 00 00
16:11:10.974778 can0  RX - -  0C000783   [4]  00 00 00 02
16:11:10.986700 can0  TX - -  0C000782   [8]  03 00 00 02 00 00 00 00
16:11:11.081458 can0  RX - -  0C000785   [4]  00 00 00 04
16:11:11.094702 can0  TX - -  0C000784   [8]  03 00 00 04 00 00 00 00
16:11:11.242780 can0  RX - -  0C000783   [4]  00 00 00 02
16:11:11.249036 can0  TX - -  0C000782   [8]  03 00 00 02 00 00 00 00
16:11:11.349448 can0  RX - -  0C000785   [4]  00 00 00 04
16:11:11.361195 can0  TX - -  0C000784   [8]  03 00 00 04 00 00 00 00
16:11:11.506789 can0  RX - -  0C000783   [4]  00 00 00 02
16:11:11.517984 can0  TX - -  0C000782   [8]  03 00 00 02 00 00 00 00
16:11:11.617443 can0  RX - -  0C000785   [4]  00 00 00 04
16:11:11.630124 can0  TX - -  0C000784   [8]  03 00 00 04 00 00 00 00
16:11:11.774785 can0  RX - -  0C000783   [4]  00 00 00 02
16:11:11.780567 can0  TX - -  0C000782   [8]  03 00 00 02 00 00 00 00
16:11:11.885437 can0  RX - -  0C000785   [4]  00 00 00 04
16:11:11.895047 can0  TX - -  0C000784   [8]  03 00 00 04 00 00 00 00
16:11:12.034789 can0  RX - -  0C000783   [4]  00 00 00 02
16:11:12.053292 can0  TX - -  0C000782   [8]  03 00 00 02 00 00 00 00
16:11:12.149426 can0  RX - -  0C000785   [4]  00 00 00 04
16:11:12.159438 can0  TX - -  0C000784   [8]  03 00 00 04 00 00 00 00
16:11:12.310790 can0  RX - -  0C000783   [4]  00 00 00 02
16:11:12.320496 can0  TX - -  0C000782   [8]  03 00 00 02 00 00 00 00
16:11:12.417423 can0  RX - -  0C000785   [4]  00 00 00 04
16:11:12.429028 can0  TX - -  0C000784   [8]  03 00 00 04 00 00 00 00
16:11:12.574798 can0  RX - -  0C000783   [4]  00 00 00 02
16:11:12.583278 can0  TX - -  0C000782   [8]  03 00 00 02 00 00 00 00
16:11:12.685419 can0  RX - -  0C000785   [4]  00 00 00 04
16:11:12.698050 can0  TX - -  0C000784   [8]  03 00 00 04 00 00 00 00
16:11:12.838797 can0  RX - -  0C000783   [4]  00 00 00 02
16:11:12.857925 can0  TX - -  0C000782   [8]  03 00 00 02 00 00 00 00
16:11:12.953410 can0  RX - -  0C000785   [4]  00 00 00 04
16:11:12.973655 can0  TX - -  0C000784   [8]  03 00 00 04 00 00 00 00
16:11:13.117230 can0  RX - -  0C000783   [4]  00 00 00 02
16:11:13.132985 can0  TX - -  0C000782   [8]  03 00 00 02 00 00 00 00
16:11:13.229403 can0  RX - -  0C000785   [4]  00 00 00 04
16:11:13.246326 can0  TX - -  0C000784   [8]  03 00 00 04 00 00 00 00
16:11:13.390801 can0  RX - -  0C000783   [4]  00 00 00 02
16:11:13.398754 can0  TX - -  0C000782   [8]  03 00 00 02 00 00 00 00
16:11:13.501398 can0  RX - -  0C000785   [4]  00 00 00 04
16:11:13.516517 can0  TX - -  0C000784   [8]  03 00 00 04 00 00 00 00
16:11:13.654804 can0  RX - -  0C000783   [4]  00 00 00 02
16:11:13.666560 can0  TX - -  0C000782   [8]  03 00 00 02 00 00 00 00
16:11:13.773387 can0  RX - -  0C000785   [4]  00 00 00 04
16:11:13.779700 can0  TX - -  0C000784   [8]  03 00 00 04 00 00 00 00
16:11:13.922808 can0  RX - -  0C000783   [4]  00 00 00 02
16:11:13.936985 can0  TX - -  0C000782   [8]  03 00 00 02 00 00 00 00
16:11:14.037384 can0  RX - -  0C000785   [4]  00 00 00 04
16:11:14.046968 can0  TX - -  0C000784   [8]  03 00 00 04 00 00 00 00
16:11:14.194811 can0  RX - -  0C000783   [4]  00 00 00 02
16:11:14.201193 can0  TX - -  0C000782   [8]  03 00 00 02 00 00 00 00
16:11:14.301375 can0  RX - -  0C000785   [4]  00 00 00 04
16:11:14.317790 can0  TX - -  0C000784   [8]  03 00 00 04 00 00 00 00
16:11:14.458811 can0  RX - -  0C000783   [4]  00 00 00 02
16:11:14.473826 can0  TX - -  0C000782   [8]  03 00 00 02 00 00 00 00
16:11:14.573367 can0  RX - -  0C000785   [4]  00 00 00 04
16:11:14.588299 can0  TX - -  0C000784   [8]  03 00 00 04 00 00 00 00
16:11:14.730818 can0  RX - -  0C000783   [4]  00 00 00 02
16:11:14.746030 can0  TX - -  0C000782   [8]  03 00 00 02 00 00 00 00
16:11:14.845364 can0  RX - -  0C000785   [4]  00 00 00 04
16:11:14.858668 can0  TX - -  0C000784   [8]  03 00 00 04 00 00 00 00
16:11:15.002820 can0  RX - -  0C000783   [4]  00 00 00 02
16:11:15.018225 can0  TX - -  0C000782   [8]  03 00 00 02 00 00 00 00
16:11:15.113361 can0  RX - E  0C000785   [4]  00 00 00 04
16:11:15.132980 can0  TX - -  0C000784   [8]  03 00 00 04 00 00 00 00
16:11:15.274824 can0  RX - -  0C000783   [4]  00 00 00 02
16:11:15.287004 can0  TX - -  0C000782   [8]  03 00 00 02 00 00 00 00
16:11:15.389348 can0  RX - -  0C000785   [4]  00 00 00 04
16:11:15.399838 can0  TX - -  0C000784   [8]  03 00 00 04 00 00 00 00
16:11:15.542826 can0  RX - -  0C000783   [4]  00 00 00 02
16:11:15.546681 can0  TX - -  0C000782   [8]  03 00 00 02 00 00 00 00
16:11:15.657343 can0  RX - -  0C000785   [4]  00 00 00 04
16:11:15.672518 can0  TX - -  0C000784   [8]  03 00 00 04 00 00 00 00
16:11:15.802830 can0  RX B E  0C000783   [4]  00 00 00 02
16:11:15.820746 can0  TX - -  0C000782   [8]  03 00 00 02 00 00 00 00
16:11:15.929337 can0  RX - -  0C000785   [4]  00 00 00 04
16:11:15.947366 can0  TX - -  0C000784   [8]  03 00 00 04 00 00 00 00
16:11:16.074834 can0  RX - -  0C000783   [4]  00 00 00 02
16:11:16.088516 can0  TX - -  0C000782   [8]  03 00 00 02 00 00 00 00
16:11:16.205328 can0  RX - -  0C000785   [4]  00 00 00 04
16:11:16.217500 can0  TX - -  0C000784   [8]  03 00 00 04 00 00 00 00
16:11:16.342837 can0  RX - -  0C000783   [4]  00 00 00 02
16:11:16.351872 can0  TX - -  0C000782   [8]  03 00 00 02 00 00 00 00
16:11:16.473325 can0  RX B E  0C000785   [4]  00 00 00 04
16:11:16.489633 can0  TX - -  0C000784   [8]  03 00 00 04 00 00 00 00
16:11:16.606838 can0  RX - -  0C000783   [4]  00 00 00 02
16:11:16.623868 can0  TX - -  0C000782   [8]  03 00 00 02 00 00 00 00
16:11:16.745314 can0  RX B E  0C000785   [4]  00 00 00 04
16:11:16.758428 can0  TX - -  0C000784   [8]  03 00 00 04 00 00 00 00
16:11:16.878842 can0  RX - -  0C000783   [4]  00 00 00 02
16:11:16.888398 can0  TX - -  0C000782   [8]  03 00 00 02 00 00 00 00
16:11:17.013309 can0  RX - -  0C000785   [4]  00 00 00 04
16:11:17.034303 can0  TX - -  0C000784   [8]  03 00 00 04 00 00 00 00
16:11:17.142849 can0  RX - -  0C000783   [4]  00 00 00 02
16:11:17.161659 can0  TX - -  0C000782   [8]  03 00 00 02 00 00 00 00
16:11:17.289304 can0  RX - -  0C000785   [4]  00 00 00 04
16:11:17.300780 can0  TX - -  0C000784   [8]  03 00 00 04 00 00 00 00
16:11:17.418846 can0  RX - -  0C000783   [4]  00 00 00 02
16:11:17.438485 can0  TX - -  0C000782   [8]  03 00 00 02 00 00 00 00
16:11:17.557296 can0  RX - -  0C000785   [4]  00 00 00 04
16:11:17.565144 can0  TX - -  0C000784   [8]  03 00 00 04 00 00 00 00
16:11:17.694854 can0  RX - -  0C000783   [4]  00 00 00 02
16:11:17.701086 can0  TX - -  0C000782   [8]  03 00 00 02 00 00 00 00
16:11:17.821297 can0  RX - -  0C000785   [4]  00 00 00 04
16:11:17.835886 can0  TX - -  0C000784   [8]  03 00 00 04 00 00 00 00
16:11:17.958854 can0  RX - -  0C000783   [4]  00 00 00 02
16:11:17.970984 can0  TX - -  0C000782   [8]  03 00 00 02 00 00 00 00
16:11:18.093283 can0  RX - -  0C000785   [4]  00 00 00 04
16:11:18.102656 can0  TX - -  0C000784   [8]  03 00 00 04 00 00 00 00
16:11:18.226857 can0  RX - -  0C000783   [4]  00 00 00 02
16:11:18.240544 can0  TX - -  0C000782   [8]  03 00 00 02 00 00 00 00
16:11:18.357281 can0  RX - -  0C000785   [4]  00 00 00 04
16:11:18.376030 can0  TX - -  0C000784   [8]  03 00 00 04 00 00 00 00
16:11:18.494861 can0  RX - E  0C000783   [4]  00 00 00 02
16:11:18.509817 can0  TX - -  0C000782   [8]  03 00 00 02 00 00 00 00
16:11:18.633272 can0  RX - -  0C000785   [4]  00 00 00 04
16:11:18.645724 can0  TX - -  0C000784   [8]  03 00 00 04 00 00 00 00
16:11:18.766864 can0  RX B E  0C000783   [4]  00 00 00 02
16:11:18.773349 can0  TX - -  0C000782   [8]  03 00 00 02 00 00 00 00
16:11:18.901265 can0  RX - -  0C000785   [4]  00 00 00 04
16:11:18.912314 can0  TX - -  0C000784   [8]  03 00 00 04 00 00 00 00
16:11:19.030865 can0  RX - -  0C000783   [4]  00 00 00 02
16:11:19.041422 can0  TX - -  0C000782   [8]  03 00 00 02 00 00 00 00
16:11:19.169259 can0  RX - -  0C000785   [4]  00 00 00 04
16:11:19.176289 can0  TX - -  0C000784   [8]  03 00 00 04 00 00 00 00
16:11:19.299360 can0  RX B -  0C000783   [4]  00 00 00 02
16:11:19.347746 can0  TX - -  0C000782   [8]  03 00 00 02 00 00 00 00
16:11:19.433252 can0  RX - -  0C000785   [4]  00 00 00 04
16:11:19.445232 can0  TX - -  0C000784   [8]  03 00 00 04 00 00 00 00
16:11:19.602875 can0  RX - -  0C000783   [4]  00 00 00 02
16:11:19.619727 can0  TX - -  0C000782   [8]  03 00 00 02 00 00 00 00
16:11:19.701247 can0  RX - E  0C000785   [4]  00 00 00 04
16:11:19.717643 can0  TX - -  0C000784   [8]  03 00 00 04 00 00 00 00
16:11:19.874879 can0  RX - -  0C000783   [4]  00 00 00 02
16:11:19.888225 can0  TX - -  0C000782   [8]  03 00 00 02 00 00 00 00
16:11:19.973238 can0  RX - -  0C000785   [4]  00 00 00 04
16:11:19.991594 can0  TX - -  0C000784   [8]  03 00 00 04 00 00 00 00
16:11:20.142880 can0  RX - -  0C000783   [4]  00 00 00 02
16:11:20.159555 can0  TX - -  0C000782   [8]  03 00 00 02 00 00 00 00
16:11:20.249230 can0  RX - -  0C000785   [4]  00 00 00 04
16:11:20.257945 can0  TX - -  0C000784   [8]  03 00 00 04 00 00 00 00
16:11:20.417234 can0  RX - -  0C000783   [4]  00 00 00 02
16:11:20.437683 can0  TX - -  0C000782   [8]  03 00 00 02 00 00 00 00
16:11:20.513223 can0  RX - -  0C000785   [4]  00 00 00 04
16:11:20.525195 can0  TX - -  0C000784   [8]  03 00 00 04 00 00 00 00
16:11:20.694884 can0  RX - -  0C000783   [4]  00 00 00 02
16:11:20.706660 can0  TX - -  0C000782   [8]  03 00 00 02 00 00 00 00
16:11:20.781220 can0  RX - E  0C000785   [4]  00 00 00 04
16:11:20.792352 can0  TX - -  0C000784   [8]  03 00 00 04 00 00 00 00
16:11:20.962886 can0  RX - -  0C000783   [4]  00 00 00 02
16:11:20.977895 can0  TX - -  0C000782   [8]  03 00 00 02 00 00 00 00
16:11:21.049212 can0  RX - -  0C000785   [4]  00 00 00 04
16:11:21.057998 can0  TX - -  0C000784   [8]  03 00 00 04 00 00 00 00
16:11:21.234891 can0  RX - -  0C000783   [4]  00 00 00 02
16:11:21.240697 can0  TX - -  0C000782   [8]  03 00 00 02 00 00 00 00
16:11:21.313207 can0  RX - E  0C000785   [4]  00 00 00 04
16:11:21.324351 can0  TX - -  0C000784   [8]  03 00 00 04 00 00 00 00
16:11:21.494896 can0  RX - -  0C000783   [4]  00 00 00 02
16:11:21.507057 can0  TX - -  0C000782   [8]  03 00 00 02 00 00 00 00
16:11:21.581200 can0  RX - -  0C000785   [4]  00 00 00 04
16:11:21.597059 can0  TX - -  0C000784   [8]  03 00 00 04 00 00 00 00
16:11:21.762899 can0  RX B E  0C000783   [4]  00 00 00 02
16:11:21.772945 can0  TX - -  0C000782   [8]  03 00 00 02 00 00 00 00
16:11:21.853191 can0  RX - -  0C000785   [4]  00 00 00 04
16:11:21.865246 can0  TX - -  0C000784   [8]  03 00 00 04 00 00 00 00
16:11:22.030901 can0  RX - -  0C000783   [4]  00 00 00 02
16:11:22.034910 can0  TX - -  0C000782   [8]  03 00 00 02 00 00 00 00
16:11:22.121188 can0  RX - -  0C000785   [4]  00 00 00 04
16:11:22.127528 can0  TX - -  0C000784   [8]  03 00 00 04 00 00 00 00
16:11:22.290903 can0  RX - -  0C000783   [4]  00 00 00 02
16:11:22.305085 can0  TX - -  0C000782   [8]  03 00 00 02 00 00 00 00
16:11:22.385180 can0  RX - -  0C000785   [4]  00 00 00 04
16:11:22.401359 can0  TX - -  0C000784   [8]  03 00 00 04 00 00 00 00
16:11:22.562905 can0  RX - -  0C000783   [4]  00 00 00 02
16:11:22.578158 can0  TX - -  0C000782   [8]  03 00 00 02 00 00 00 00
16:11:22.657173 can0  RX - -  0C000785   [4]  00 00 00 04
16:11:22.662378 can0  TX - -  0C000784   [8]  03 00 00 04 00 00 00 00
16:11:22.834912 can0  RX - -  0C000783   [4]  00 00 00 02
16:11:22.854051 can0  TX - -  0C000782   [8]  03 00 00 02 00 00 00 00
16:11:22.917235 can0  RX - -  0C000785   [4]  00 00 00 04
16:11:22.923973 can0  TX - -  0C000784   [8]  03 00 00 04 00 00 00 00
16:11:23.110912 can0  RX - -  0C000783   [4]  00 00 00 02
16:11:23.119883 can0  TX - -  0C000782   [8]  03 00 00 02 00 00 00 00
16:11:23.181163 can0  RX - -  0C000785   [4]  00 00 00 04
16:11:23.190301 can0  TX - -  0C000784   [8]  03 00 00 04 00 00 00 00
16:11:23.374912 can0  RX - -  0C000783   [4]  00 00 00 02
16:11:23.383430 can0  TX - -  0C000782   [8]  03 00 00 02 00 00 00 00
16:11:23.445156 can0  RX - -  0C000785   [4]  00 00 00 04
16:11:23.457405 can0  TX - -  0C000784   [8]  03 00 00 04 00 00 00 00
16:11:23.638917 can0  RX - -  0C000783   [4]  00 00 00 02
16:11:23.654705 can0  TX - -  0C000782   [8]  03 00 00 02 00 00 00 00
16:11:23.713144 can0  RX - E  0C000785   [4]  00 00 00 04
16:11:23.725469 can0  TX - -  0C000784   [8]  03 00 00 04 00 00 00 00
16:11:23.910920 can0  RX - -  0C000783   [4]  00 00 00 02
16:11:23.927225 can0  TX - -  0C000782   [8]  03 00 00 02 00 00 00 00
16:11:23.981136 can0  RX - -  0C000785   [4]  00 00 00 04
16:11:23.998798 can0  TX - -  0C000784   [8]  03 00 00 04 00 00 00 00
16:11:24.182926 can0  RX - -  0C000783   [4]  00 00 00 02
16:11:24.197141 can0  TX - -  0C000782   [8]  03 00 00 02 00 00 00 00
16:11:24.253135 can0  RX - -  0C000785   [4]  00 00 00 04
16:11:24.261446 can0  TX - -  0C000784   [8]  03 00 00 04 00 00 00 00
16:11:24.454928 can0  RX - -  0C000783   [4]  00 00 00 02
16:11:24.467378 can0  TX - -  0C000782   [8]  03 00 00 02 00 00 00 00
16:11:24.517250 can0  RX - -  0C000785   [4]  00 00 00 04
16:11:24.521841 can0  TX - -  0C000784   [8]  03 00 00 04 00 00 00 00
16:11:24.722934 can0  RX - -  0C000783   [4]  00 00 00 02
16:11:24.737300 can0  TX - -  0C000782   [8]  03 00 00 02 00 00 00 00
16:11:24.777122 can0  RX B E  0C000785   [4]  00 00 00 04
16:11:24.789332 can0  TX - -  0C000784   [8]  03 00 00 04 00 00 00 00
16:11:24.994935 can0  RX - -  0C000783   [4]  00 00 00 02
16:11:25.007881 can0  TX - -  0C000782   [8]  03 00 00 02 00 00 00 00
16:11:25.045114 can0  RX - -  0C000785   [4]  00 00 00 04
16:11:25.058825 can0  TX - -  0C000784   [8]  03 00 00 04 00 00 00 00
16:11:25.262937 can0  RX - -  0C000783   [4]  00 00 00 02
16:11:25.278294 can0  TX - -  0C000782   [8]  03 00 00 02 00 00 00 00
16:11:25.313111 can0  RX - E  0C000785   [4]  00 00 00 04
16:11:25.320235 can0  TX - -  0C000784   [8]  03 00 00 04 00 00 00 00
16:11:25.534940 can0  RX - -  0C000783   [4]  00 00 00 02
16:11:25.541075 can0  TX - -  0C000782   [8]  03 00 00 02 00 00 00 00
16:11:25.577105 can0  RX - E  0C000785   [4]  00 00 00 04
16:11:25.591136 can0  TX - -  0C000784   [8]  03 00 00 04 00 00 00 00
16:11:25.798942 can0  RX - -  0C000783   [4]  00 00 00 02
16:11:25.805889 can0  TX - -  0C000782   [8]  03 00 00 02 00 00 00 00
16:11:25.849094 can0  RX - -  0C000785   [4]  00 00 00 04
16:11:25.866184 can0  TX - -  0C000784   [8]  03 00 00 04 00 00 00 00
16:11:26.062946 can0  RX - -  0C000783   [4]  00 00 00 02
16:11:26.080984 can0  TX - -  0C000782   [8]  03 00 00 02 00 00 00 00
16:11:26.121090 can0  RX - -  0C000785   [4]  00 00 00 04
16:11:26.132885 can0  TX - -  0C000784   [8]  03 00 00 04 00 00 00 00
16:11:26.338949 can0  RX - E  0C000783   [4]  00 00 00 02
16:11:26.356821 can0  TX - -  0C000782   [8]  03 00 00 02 00 00 00 00
16:11:26.389082 can0  RX - -  0C000785   [4]  00 00 00 04
16:11:26.409349 can0  TX - -  0C000784   [8]  03 00 00 04 00 00 00 00
16:11:26.610952 can0  RX - -  0C000783   [4]  00 00 00 02
16:11:26.618944 can0  TX - -  0C000782   [8]  03 00 00 02 00 00 00 00
16:11:26.665077 can0  RX - E  0C000785   [4]  00 00 00 04
16:11:26.669654 can0  TX - -  0C000784   [8]  03 00 00 04 00 00 00 00
16:11:26.874953 can0  RX - -  0C000783   [4]  00 00 00 02
16:11:26.890024 can0  TX - -  0C000782   [8]  03 00 00 02 00 00 00 00
16:11:26.925069 can0  RX - -  0C000785   [4]  00 00 00 04
16:11:26.940099 can0  TX - -  0C000784   [8]  03 00 00 04 00 00 00 00
16:11:27.146958 can0  RX - -  0C000783   [4]  00 00 00 02
16:11:27.156648 can0  TX - -  0C000782   [8]  03 00 00 02 00 00 00 00
16:11:27.197062 can0  RX - E  0C000785   [4]  00 00 00 04
16:11:27.207973 can0  TX - -  0C000784   [8]  03 00 00 04 00 00 00 00
16:11:27.410962 can0  RX - -  0C000783   [4]  00 00 00 02
16:11:27.427537 can0  TX - -  0C000782   [8]  03 00 00 02 00 00 00 00
16:11:27.465053 can0  RX - -  0C000785   [4]  00 00 00 04
16:11:27.481571 can0  TX - -  0C000784   [8]  03 00 00 04 00 00 00 00
16:11:27.682964 can0  RX B E  0C000783   [4]  00 00 00 02
16:11:27.696256 can0  TX - -  0C000782   [8]  03 00 00 02 00 00 00 00
16:11:27.737049 can0  RX - -  0C000785   [4]  00 00 00 04
16:11:27.750073 can0  TX - -  0C000784   [8]  03 00 00 04 00 00 00 00
16:11:27.950969 can0  RX - -  0C000783   [4]  00 00 00 02
16:11:27.959970 can0  TX - -  0C000782   [8]  03 00 00 02 00 00 00 00
16:11:28.005042 can0  RX B E  0C000785   [4]  00 00 00 04
16:11:28.011631 can0  TX - -  0C000784   [8]  03 00 00 04 00 00 00 00
16:11:28.217222 can0  RX - -  0C000783   [4]  00 00 00 02
16:11:28.223845 can0  TX - -  0C000782   [8]  03 00 00 02 00 00 00 00
16:11:28.269036 can0  RX - E  0C000785   [4]  00 00 00 04
16:11:28.284165 can0  TX - -  0C000784   [8]  03 00 00 04 00 00 00 00
16:11:28.478971 can0  RX - -  0C000783   [4]  00 00 00 02
16:11:28.500474 can0  TX - -  0C000782   [8]  03 00 00 02 00 00 00 00
16:11:28.541031 can0  RX - E  0C000785   [4]  00 00 00 04
16:11:28.555605 can0  TX - -  0C000784   [8]  03 00 00 04 00 00 00 00
16:11:28.754978 can0  RX B E  0C000783   [4]  00 00 00 02
16:11:28.762112 can0  TX - -  0C000782   [8]  03 00 00 02 00 00 00 00
16:11:28.813025 can0  RX - E  0C000785   [4]  00 00 00 04
16:11:28.823985 can0  TX - -  0C000784   [8]  03 00 00 04 00 00 00 00
16:11:29.018982 can0  RX - -  0C000783   [4]  00 00 00 02
16:11:29.028019 can0  TX - -  0C000782   [8]  03 00 00 02 00 00 00 00
16:11:29.081018 can0  RX - E  0C000785   [4]  00 00 00 04
16:11:29.088213 can0  TX - -  0C000784   [8]  03 00 00 04 00 00 00 00
16:11:29.282985 can0  RX - -  0C000783   [4]  00 00 00 02
16:11:29.297506 can0  TX - -  0C000782   [8]  03 00 00 02 00 00 00 00
16:11:29.345009 can0  RX - -  0C000785   [4]  00 00 00 04
16:11:29.359953 can0  TX - -  0C000784   [8]  03 00 00 04 00 00 00 00
16:11:29.554982 can0  RX - -  0C000783   [4]  00 00 00 02
16:11:29.565734 can0  TX - -  0C000782   [8]  03 00 00 02 00 00 00 00
16:11:29.617246 can0  RX - -  0C000785   [4]  00 00 00 04
16:11:29.627795 can0  TX - -  0C000784   [8]  03 00 00 04 00 00 00 00
16:11:29.822991 can0  RX - -  0C000783   [4]  00 00 00 02
16:11:29.830644 can0  TX - -  0C000782   [8]  03 00 00 02 00 00 00 00
16:11:29.884999 can0  RX - E  0C000785   [4]  00 00 00 04
16:11:29.896705 can0  TX - -  0C000784   [8]  03 00 00 04 00 00 00 00
16:11:30.086993 can0  RX - -  0C000783   [4]  00 00 00 02
16:11:30.097342 can0  TX - -  0C000782   [8]  03 00 00 02 00 00 00 00
16:11:30.152992 can0  RX - -  0C000785   [4]  00 00 00 04
16:11:30.159977 can0  TX - -  0C000784   [8]  03 00 00 04 00 00 00 00
16:11:30.354997 can0  RX - -  0C000783   [4]  00 00 00 02
16:11:30.368120 can0  TX - -  0C000782   [8]  03 00 00 02 00 00 00 00
16:11:30.417248 can0  RX - -  0C000785   [4]  00 00 00 04
16:11:30.428089 can0  TX - -  0C000784   [8]  03 00 00 04 00 00 00 00
16:11:30.622999 can0  RX - -  0C000783   [4]  00 00 00 02
16:11:30.638944 can0  TX - -  0C000782   [8]  03 00 00 02 00 00 00 00
16:11:30.684980 can0  RX - E  0C000785   [4]  00 00 00 04
16:11:30.699011 can0  TX - -  0C000784   [8]  03 00 00 04 00 00 00 00
16:11:30.895008 can0  RX - -  0C000783   [4]  00 00 00 02
16:11:30.898187 can0  TX - -  0C000782   [8]  03 00 00 02 00 00 00 00
16:11:30.952971 can0  RX - -  0C000785   [4]  00 00 00 04
16:11:30.963887 can0  TX - -  0C000784   [8]  03 00 00 04 00 00 00 00
16:11:31.155003 can0  RX - -  0C000783   [4]  00 00 00 02
16:11:31.168066 can0  TX - -  0C000782   [8]  03 00 00 02 00 00 00 00
16:11:31.220961 can0  RX B E  0C000785   [4]  00 00 00 04
16:11:31.228079 can0  TX - -  0C000784   [8]  03 00 00 04 00 00 00 00
16:11:31.423008 can0  RX - -  0C000783   [4]  00 00 00 02
16:11:31.435683 can0  TX - -  0C000782   [8]  03 00 00 02 00 00 00 00
16:11:31.484961 can0  RX - E  0C000785   [4]  00 00 00 04
16:11:31.497656 can0  TX - -  0C000784   [8]  03 00 00 04 00 00 00 00
16:11:31.691013 can0  RX - -  0C000783   [4]  00 00 00 02
16:11:31.705818 can0  TX - -  0C000782   [8]  03 00 00 02 00 00 00 00
16:11:31.752951 can0  RX B E  0C000785   [4]  00 00 00 04
16:11:31.768716 can0  TX - -  0C000784   [8]  03 00 00 04 00 00 00 00
16:11:31.963012 can0  RX - -  0C000783   [4]  00 00 00 02
16:11:31.971395 can0  TX - -  0C000782   [8]  03 00 00 02 00 00 00 00
16:11:32.024944 can0  RX - -  0C000785   [4]  00 00 00 04
16:11:32.037588 can0  TX - -  0C000784   [8]  03 00 00 04 00 00 00 00
16:11:32.227018 can0  RX - -  0C000783   [4]  00 00 00 02
16:11:32.245322 can0  TX - -  0C000782   [8]  03 00 00 02 00 00 00 00
16:11:32.292938 can0  RX B E  0C000785   [4]  00 00 00 04
16:11:32.308786 can0  TX - -  0C000784   [8]  03 00 00 04 00 00 00 00
16:11:32.503018 can0  RX - -  0C000783   [4]  00 00 00 02
16:11:32.520853 can0  TX - -  0C000782   [8]  03 00 00 02 00 00 00 00
16:11:32.564936 can0  RX - E  0C000785   [4]  00 00 00 04
16:11:32.584641 can0  TX - -  0C000784   [8]  03 00 00 04 00 00 00 00
16:11:32.775025 can0  RX B E  0C000783   [4]  00 00 00 02
16:11:32.781479 can0  TX - -  0C000782   [8]  03 00 00 02 00 00 00 00
16:11:32.840925 can0  RX - -  0C000785   [4]  00 00 00 04
16:11:32.846914 can0  TX - -  0C000784   [8]  03 00 00 04 00 00 00 00
16:11:33.039026 can0  RX B E  0C000783   [4]  00 00 00 02
16:11:33.055415 can0  TX - -  0C000782   [8]  03 00 00 02 00 00 00 00
16:11:33.100918 can0  RX - E  0C000785   [4]  00 00 00 04
16:11:33.121386 can0  TX - -  0C000784   [8]  03 00 00 04 00 00 00 00
16:11:33.311030 can0  RX - -  0C000783   [4]  00 00 00 02
16:11:33.318323 can0  TX - -  0C000782   [8]  03 00 00 02 00 00 00 00
16:11:33.376915 can0  RX - E  0C000785   [4]  00 00 00 04
16:11:33.384542 can0  TX - -  0C000784   [8]  03 00 00 04 00 00 00 00
16:11:33.575031 can0  RX - -  0C000783   [4]  00 00 00 02
16:11:33.588627 can0  TX - -  0C000782   [8]  03 00 00 02 00 00 00 00
16:11:33.640904 can0  RX - E  0C000785   [4]  00 00 00 04
16:11:33.652141 can0  TX - -  0C000784   [8]  03 00 00 04 00 00 00 00
16:11:33.843035 can0  RX B E  0C000783   [4]  00 00 00 02
16:11:33.862684 can0  TX - -  0C000782   [8]  03 00 00 02 00 00 00 00
16:11:33.908902 can0  RX - E  0C000785   [4]  00 00 00 04
16:11:33.917497 can0  TX - -  0C000784   [8]  03 00 00 04 00 00 00 00
16:11:34.119038 can0  RX B E  0C000783   [4]  00 00 00 02
16:11:34.140230 can0  TX - -  0C000782   [8]  03 00 00 02 00 00 00 00
16:11:34.172894 can0  RX - E  0C000785   [4]  00 00 00 04
16:11:34.183377 can0  TX - -  0C000784   [8]  03 00 00 04 00 00 00 00
16:11:34.395044 can0  RX - E  0C000783   [4]  00 00 00 02
16:11:34.405692 can0  TX - -  0C000782   [8]  03 00 00 02 00 00 00 00
16:11:34.440896 can0  RX - -  0C000785   [4]  00 00 00 04
16:11:34.455993 can0  TX - -  0C000784   [8]  03 00 00 04 00 00 00 00
16:11:34.663043 can0  RX - -  0C000783   [4]  00 00 00 02
16:11:34.675549 can0  TX - -  0C000782   [8]  03 00 00 02 00 00 00 00
16:11:34.712880 can0  RX - E  0C000785   [4]  00 00 00 04
16:11:34.719488 can0  TX - -  0C000784   [8]  03 00 00 04 00 00 00 00
16:11:34.931044 can0  RX B E  0C000783   [4]  00 00 00 02
16:11:34.944537 can0  TX - -  0C000782   [8]  03 00 00 02 00 00 00 00
16:11:34.976874 can0  RX - E  0C000785   [4]  00 00 00 04
16:11:34.988658 can0  TX - -  0C000784   [8]  03 00 00 04 00 00 00 00
16:11:35.199049 can0  RX - -  0C000783   [4]  00 00 00 02
16:11:35.218243 can0  TX - -  0C000782   [8]  03 00 00 02 00 00 00 00
16:11:35.244870 can0  RX - E  0C000785   [4]  00 00 00 04
16:11:35.259220 can0  TX - -  0C000784   [8]  03 00 00 04 00 00 00 00
16:11:35.475055 can0  RX - -  0C000783   [4]  00 00 00 02
16:11:35.484382 can0  TX - -  0C000782   [8]  03 00 00 02 00 00 00 00
16:11:35.517260 can0  RX - -  0C000785   [4]  00 00 00 04
16:11:35.528250 can0  TX - -  0C000784   [8]  03 00 00 04 00 00 00 00
16:11:35.739053 can0  RX - -  0C000783   [4]  00 00 00 02
16:11:35.754329 can0  TX - -  0C000782   [8]  03 00 00 02 00 00 00 00
16:11:35.784855 can0  RX - E  0C000785   [4]  00 00 00 04
16:11:35.798447 can0  TX - -  0C000784   [8]  03 00 00 04 00 00 00 00
16:11:36.011060 can0  RX - -  0C000783   [4]  00 00 00 02
16:11:36.030039 can0  TX - -  0C000782   [8]  03 00 00 02 00 00 00 00
16:11:36.052847 can0  RX - E  0C000785   [4]  00 00 00 04
16:11:36.069930 can0  TX - -  0C000784   [8]  03 00 00 04 00 00 00 00
16:11:36.287061 can0  RX - -  0C000783   [4]  00 00 00 02
16:11:36.290464 can0  TX - -  0C000782   [8]  03 00 00 02 00 00 00 00
16:11:36.324850 can0  RX - -  0C000785   [4]  00 00 00 04
16:11:36.334567 can0  TX - -  0C000784   [8]  03 00 00 04 00 00 00 00
16:11:36.547064 can0  RX - -  0C000783   [4]  00 00 00 02
16:11:36.556668 can0  TX - -  0C000782   [8]  03 00 00 02 00 00 00 00
16:11:36.588838 can0  RX - -  0C000785   [4]  00 00 00 04
16:11:36.598579 can0  TX - -  0C000784   [8]  03 00 00 04 00 00 00 00
16:11:36.811069 can0  RX B E  0C000783   [4]  00 00 00 02
16:11:36.819968 can0  TX - -  0C000782   [8]  03 00 00 02 00 00 00 00
16:11:36.852827 can0  RX - E  0C000785   [4]  00 00 00 04
16:11:36.859921 can0  TX - -  0C000784   [8]  03 00 00 04 00 00 00 00
16:11:37.075070 can0  RX - -  0C000783   [4]  00 00 00 02
16:11:37.086974 can0  TX - -  0C000782   [8]  03 00 00 02 00 00 00 00
16:11:37.117250 can0  RX - -  0C000785   [4]  00 00 00 04
16:11:37.128481 can0  TX - -  0C000784   [8]  03 00 00 04 00 00 00 00
16:11:37.343071 can0  RX - -  0C000783   [4]  00 00 00 02
16:11:37.360058 can0  TX - -  0C000782   [8]  03 00 00 02 00 00 00 00
16:11:37.384818 can0  RX - E  0C000785   [4]  00 00 00 04
16:11:37.400806 can0  TX - -  0C000784   [8]  03 00 00 04 00 00 00 00
16:11:37.617223 can0  RX - -  0C000783   [4]  00 00 00 02
16:11:37.632579 can0  TX - -  0C000782   [8]  03 00 00 02 00 00 00 00
16:11:37.656808 can0  RX - -  0C000785   [4]  00 00 00 04
16:11:37.675882 can0  TX - -  0C000784   [8]  03 00 00 04 00 00 00 00
16:11:37.887078 can0  RX - -  0C000783   [4]  00 00 00 02
16:11:37.895468 can0  TX - -  0C000782   [8]  03 00 00 02 00 00 00 00
16:11:37.932799 can0  RX - -  0C000785   [4]  00 00 00 04
16:11:37.939610 can0  TX - -  0C000784   [8]  03 00 00 04 00 00 00 00
16:11:38.151086 can0  RX - -  0C000783   [4]  00 00 00 02
16:11:38.166754 can0  TX - -  0C000782   [8]  03 00 00 02 00 00 00 00
16:11:38.196794 can0  RX - -  0C000785   [4]  00 00 00 04
16:11:38.207981 can0  TX - -  0C000784   [8]  03 00 00 04 00 00 00 00
16:11:38.423086 can0  RX - -  0C000783   [4]  00 00 00 02
16:11:38.437540 can0  TX - -  0C000782   [8]  03 00 00 02 00 00 00 00
16:11:38.464791 can0  RX - E  0C000785   [4]  00 00 00 04
16:11:38.479961 can0  TX - -  0C000784   [8]  03 00 00 04 00 00 00 00
16:11:38.695089 can0  RX - -  0C000783   [4]  00 00 00 02
16:11:38.701483 can0  TX - -  0C000782   [8]  03 00 00 02 00 00 00 00
16:11:38.736785 can0  RX - -  0C000785   [4]  00 00 00 04
16:11:38.750367 can0  RX B E  1C00007E   [0] 
16:11:38.754671 can0  TX - -  0C000784   [8]  03 00 00 04 00 00 00 00
16:11:38.765639 can0  TX - -  1C0004FE   [8]  00 00 00 00 00 00 00 01
16:11:38.770379 can0  RX - -  1C04847E   [0] 
16:11:38.787823 can0  TX - -  1C0484FE   [8]  00 00 00 00 00 00 00 00
16:11:38.790376 can0  RX - E  1DB5047E   [0] 
16:11:38.808778 can0  TX - -  1DB504FE   [8]  00 00 00 00 00 00 00 00
16:11:38.817263 can0  RX - -  1F69847E   [0] 
16:11:38.829785 can0  TX - -  1F6984FE   [8]  00 00 00 00 00 00 00 00
16:11:38.835060 can0  RX - E  1C02047E   [8]  00 01 6D DA 00 02 00 03
16:11:38.835745 can0  RX - -  1C02847E   [8]  00 00 00 97 01 00 40 10
16:11:38.836250 can0  RX - -  1C03047E   [8]  01 00 00 2F 00 00 40 10
16:11:38.836827 can0  RX - -  1C03847E   [8]  00 00 40 10 01 08 00 10
16:11:38.889973 can0  TX - -  1C0384FE   [8]  00 01 6D DA 00 02 87 00
16:11:38.894550 can0  RX - -  18000A07   [2]  40 07
16:11:38.910074 can0  TX - -  18000A06   [8]  40 07 00 00 00 08 00 01
16:11:38.917279 can0  RX - -  18000987   [2]  03 00
16:11:38.930023 can0  TX - -  18002086   [4]  02 00 00 00
16:11:38.935030 can0  RX - -  18002087   [8]  02 00 00 00 4D 4F 42 49
16:11:38.935591 can0  TX - -  18000986   [8]  03 00 00 00 00 03 00 01
16:11:38.938563 can0  RX - -  18000D07   [2]  01 01
16:11:38.950065 can0  TX - -  18002086   [4]  02 00 00 04
16:11:38.955031 can0  RX - E  18002087   [8]  02 00 00 04 4C 45 20 53
16:11:38.955584 can0  TX - -  18000D06   [3]  01 01 01
16:11:38.958561 can0  RX - -  18000D07   [2]  01 00

16:11:38.959135 can0  RX - E  0C000783   [4]  00 00 00 02

16:11:38.971065 can0  TX - -  18002086   [4]  02 00 00 08
16:11:38.973277 can0  TX - -  18000D06   [3]  01 00 00
16:11:38.975199 can0  RX B E  18002087   [8]  02 00 00 08 54 41 54 49
16:11:38.978562 can0  RX B E  18000D07   [2]  02 01

16:11:38.980718 can0  TX - -  0C000782   [8]  03 00 00 02 00 00 00 00

16:11:38.991647 can0  TX - -  18002086   [4]  02 00 00 0C
16:11:38.994952 can0  RX - E  18002087   [7]  02 00 00 0C 4F 4E 00
16:11:38.995506 can0  TX - -  18000D06   [3]  02 01 02
16:11:38.998562 can0  RX - -  18000D07   [2]  02 00

16:11:39.008775 can0  RX - E  0C000785   [4]  00 00 00 04

16:11:39.012067 can0  TX - -  18000D06   [3]  02 00 00
16:11:39.017293 can0  RX - -  18000D07   [2]  03 01

16:11:39.022010 can0  TX - -  0C000784   [8]  03 00 00 04 00 00 00 00

16:11:39.031987 can0  TX - -  18000D06   [3]  03 01 04
16:11:39.034559 can0  RX - E  18000D07   [2]  03 00
16:11:39.041963 can0  TX - -  18000D06   [3]  03 00 00
16:11:39.046558 can0  RX - E  18000D07   [2]  04 01
16:11:39.052084 can0  TX - -  18000D06   [2]  04 01
16:11:39.054727 can0  RX - -  18000987   [4]  80 02 00 00
16:11:39.062051 can0  TX - -  18000986   [8]  80 02 00 00 00 09 00 01
16:11:39.067269 can0  RX - E  18000987   [4]  80 02 00 09
16:11:39.067816 can0  RX - E  18002487   [4]  40 03 00 00
16:11:39.072029 can0  TX - -  18000986   [4]  80 02 00 09
16:11:39.074721 can0  RX - E  18000987   [4]  81 02 00 00
16:11:39.082109 can0  TX - -  18002486   [6]  40 03 00 00 00 02
16:11:39.086735 can0  RX - E  18002487   [4]  40 01 00 00
16:11:39.092114 can0  TX - -  18000986   [4]  81 02 00 00
16:11:39.094724 can0  RX - -  18000987   [4]  82 02 00 00
16:11:39.102142 can0  TX - -  18002486   [8]  40 01 00 00 00 0D 00 00
16:11:39.106740 can0  RX - E  18002487   [4]  40 01 01 00
16:11:39.112124 can0  TX - -  18000986   [4]  82 02 00 00
16:11:39.122017 can0  TX - -  18002486   [8]  40 01 01 00 00 05 00 00
16:11:39.130538 can0  RX B E  18002507   [2]  01 01
16:11:39.142075 can0  TX - -  18002506   [4]  01 01 01 01
16:11:39.146574 can0  RX - E  18002507   [2]  01 00
16:11:39.151820 can0  TX - -  18002506   [3]  01 00 35
16:11:39.154571 can0  RX - E  18002507   [2]  02 01
16:11:39.172129 can0  TX - -  18002506   [4]  02 01 02 01
16:11:39.175046 can0  RX - -  18002507   [2]  02 00
16:11:39.193094 can0  TX - -  18002506   [3]  02 00 00
16:11:39.198571 can0  RX - E  18002507   [2]  03 01
16:11:39.213160 can0  TX - -  18002506   [4]  03 01 02 06
16:11:39.219066 can0  RX B E  18002507   [2]  03 00
16:11:39.233323 can0  TX - -  18002506   [3]  03 00 00

16:11:39.235107 can0  RX B E  0C000783   [4]  00 00 00 02

16:11:39.238581 can0  RX B E  18002507   [2]  04 01

16:11:39.244344 can0  TX - -  0C000782   [8]  03 00 00 02 00 00 00 00

16:11:39.255249 can0  TX - -  18002506   [4]  04 01 02 06
16:11:39.259071 can0  RX B E  18002507   [2]  04 00
16:11:39.266303 can0  TX - -  18002506   [3]  04 00 00
16:11:39.270576 can0  RX - -  18002507   [2]  05 01

16:11:39.276769 can0  RX - -  0C000785   [4]  00 00 00 04

16:11:39.277305 can0  TX - -  18002506   [4]  05 01 02 08
16:11:39.283071 can0  RX - -  18002507   [2]  05 00

16:11:39.288405 can0  TX - -  0C000784   [8]  03 00 00 04 00 00 00 00

16:11:39.299385 can0  TX - -  18002506   [3]  05 00 00
16:11:39.302573 can0  RX - -  18002507   [2]  06 01
16:11:39.310474 can0  TX - -  18002506   [4]  06 01 02 01
16:11:39.317268 can0  RX - -  18002507   [2]  06 00
16:11:39.332605 can0  TX - -  18002506   [3]  06 00 00
16:11:39.334571 can0  RX - -  18002507   [2]  07 01
16:11:39.343771 can0  TX - -  18002506   [4]  07 01 02 01
16:11:39.347100 can0  RX B -  18002507   [2]  07 00
16:11:39.365682 can0  TX - -  18002506   [3]  07 00 00
16:11:39.370575 can0  RX - E  18002507   [2]  08 01
16:11:39.385942 can0  TX - -  18002506   [2]  08 01
16:11:39.390724 can0  RX - E  18002507   [4]  01 02 00 00
16:11:39.406365 can0  TX - -  18002506   [5]  01 02 00 00 FF
16:11:39.410723 can0  RX - E  18002507   [4]  01 02 01 00
16:11:39.427761 can0  TX - -  18002506   [5]  01 02 01 00 0F
16:11:39.430744 can0  RX - -  18002507   [4]  01 02 02 00
16:11:39.449718 can0  TX - -  18002506   [5]  01 02 02 00 0F
16:11:39.454723 can0  RX - E  18002487   [4]  40 04 00 00
16:11:39.470781 can0  TX - -  18002486   [6]  40 04 00 00 01 00
16:11:39.474571 can0  RX - -  18002407   [2]  03 00
16:11:39.492734 can0  TX - -  18002406   [6]  03 00 00 00 00 01
16:11:39.498698 can0  RX - E  18002487   [4]  02 00 00 00

16:11:39.499721 can0  RX - E  0C000783   [4]  00 00 00 02

16:11:39.504409 can0  TX - -  18002486   [8]  02 00 00 00 33 33 35 20
16:11:39.506737 can0  RX B E  18002487   [4]  02 00 00 04

16:11:39.513738 can0  TX - -  0C000782   [8]  03 00 00 02 00 00 00 00

16:11:39.524700 can0  TX - -  18002486   [8]  02 00 00 04 31 30 35 2D
16:11:39.526739 can0  RX - E  18002487   [4]  02 00 00 08
16:11:39.535760 can0  TX - -  18002486   [8]  02 00 00 08 33 20 44 42
16:11:39.538738 can0  RX - -  18002487   [4]  02 00 00 0C

16:11:39.544762 can0  RX - E  0C000785   [4]  00 00 00 04

16:11:39.546623 can0  TX - -  18002486   [8]  02 00 00 0C 00 00 00 00

16:11:39.556904 can0  TX - -  0C000784   [8]  03 00 00 04 00 00 00 00
16:11:39.771104 can0  RX - -  0C000783   [4]  00 00 00 02
16:11:39.785991 can0  TX - -  0C000782   [8]  03 00 00 02 00 00 00 00
16:11:39.802675 can0  RX - E  0C000787   [4]  00 00 00 06
16:11:39.812759 can0  RX - E  0C000785   [4]  00 00 00 04
16:11:39.817894 can0  TX - -  0C000786   [8]  03 00 00 06 00 00 00 00
16:11:39.828447 can0  TX - -  0C000784   [8]  03 00 00 04 00 00 00 00
16:11:40.043104 can0  RX - -  0C000783   [4]  00 00 00 02
16:11:40.050027 can0  TX - -  0C000782   [8]  03 00 00 02 00 00 00 00
16:11:40.074668 can0  RX - E  0C000787   [4]  00 00 00 06
16:11:40.079734 can0  TX - -  0C000786   [8]  03 00 00 06 00 00 00 00
16:11:40.084762 can0  RX - E  0C000785   [4]  00 00 00 04
16:11:40.099954 can0  TX - -  0C000784   [8]  03 00 00 04 00 00 00 00
16:11:40.307106 can0  RX - E  0C000783   [4]  00 00 00 02
16:11:40.325074 can0  TX - -  0C000782   [8]  03 00 00 02 00 00 00 00
16:11:40.334661 can0  RX - E  0C000787   [4]  00 00 00 06
16:11:40.345111 can0  TX - -  0C000786   [8]  03 00 00 06 00 00 00 00
16:11:40.356744 can0  RX - -  0C000785   [4]  00 00 00 04
16:11:40.375290 can0  TX - -  0C000784   [8]  03 00 00 04 00 00 00 00
16:11:40.579115 can0  RX B E  0C000783   [4]  00 00 00 02
16:11:40.598519 can0  TX - -  0C000782   [8]  03 00 00 02 00 00 00 00
16:11:40.602667 can0  RX - -  0C000787   [4]  00 00 00 06
16:11:40.620601 can0  TX - -  0C000786   [8]  03 00 00 06 00 00 00 00
16:11:40.632735 can0  RX - E  0C000785   [4]  00 00 00 04
16:11:40.642783 can0  TX - -  0C000784   [8]  03 00 00 04 00 00 00 00
16:11:40.710838 can0  RX - E  14002407   [6]  03 00 00 08 00 01
16:11:40.717519 can0  TX - -  14002406   [6]  03 00 00 08 00 01
16:11:40.855114 can0  RX - -  0C000783   [4]  00 00 00 02
16:11:40.863287 can0  TX - -  0C000782   [8]  03 00 00 02 00 00 00 00
16:11:40.900729 can0  RX - -  0C000785   [4]  00 00 00 04
16:11:40.918081 can0  TX - -  0C000784   [8]  03 00 00 04 00 00 00 00
16:11:40.974650 can0  RX - E  0C000787   [4]  00 00 00 06
16:11:40.988061 can0  TX - -  0C000786   [8]  03 00 00 06 00 00 00 00
16:11:41.119117 can0  RX - -  0C000783   [4]  00 00 00 02
16:11:41.135390 can0  TX - -  0C000782   [8]  03 00 00 02 00 00 00 00
16:11:41.172725 can0  RX - E  0C000785   [4]  00 00 00 04
16:11:41.178094 can0  TX - -  0C000784   [8]  03 00 00 04 00 00 00 00
16:11:41.242641 can0  RX - -  0C000787   [4]  00 00 00 06
16:11:41.257969 can0  TX - -  0C000786   [8]  03 00 00 06 00 00 00 00
16:11:41.391118 can0  RX - -  0C000783   [4]  00 00 00 02
16:11:41.410274 can0  TX - -  0C000782   [8]  03 00 00 02 00 00 00 00
16:11:41.432715 can0  RX - -  0C000785   [4]  00 00 00 04
16:11:41.452664 can0  TX - -  0C000784   [8]  03 00 00 04 00 00 00 00
16:11:41.517253 can0  RX - -  0C000787   [4]  00 00 00 06
16:11:41.535830 can0  TX - -  0C000786   [8]  03 00 00 06 00 00 00 00
16:11:41.667123 can0  RX - -  0C000783   [4]  00 00 00 02
16:11:41.671372 can0  TX - -  0C000782   [8]  03 00 00 02 00 00 00 00
16:11:41.708721 can0  RX - E  0C000785   [4]  00 00 00 04
16:11:41.717512 can0  TX - -  0C000784   [8]  03 00 00 04 00 00 00 00
16:11:41.790631 can0  RX B E  0C000787   [4]  00 00 00 06
16:11:41.802783 can0  TX - -  0C000786   [8]  03 00 00 06 00 00 00 00
16:11:41.927126 can0  RX - -  0C000783   [4]  00 00 00 02
16:11:41.936963 can0  TX - -  0C000782   [8]  03 00 00 02 00 00 00 00
16:11:41.972702 can0  RX - E  0C000785   [4]  00 00 00 04
16:11:41.988258 can0  TX - -  0C000784   [8]  03 00 00 04 00 00 00 00
16:11:42.058623 can0  RX - -  0C000787   [4]  00 00 00 06
16:11:42.079133 can0  TX - -  0C000786   [8]  03 00 00 06 00 00 00 00
16:11:42.150551 can0  RX - -  08002507   [3]  01 00 36
16:11:42.161317 can0  TX - -  00080300   [6]  00 00 40 05 01 B0
16:11:42.163369 can0  RX - -  0009533C   [6]  00 00 40 05 01 B0
16:11:42.173088 can0  TX - -  18002502   [3]  01 00 36
16:11:42.182543 can0  RX - E  08002507   [3]  01 00 38
16:11:42.183107 can0  TX - -  18002504   [3]  01 00 36
16:11:42.217335 can0  RX - -  08002507   [3]  01 00 39
16:11:42.246550 can0  RX - E  08002507   [3]  01 00 3A
16:11:42.278541 can0  RX - E  08002507   [3]  01 00 3B
16:11:42.310679 can0  RX - -  08002507   [3]  01 00 3C
16:11:42.334615 can0  RX B E  0C000787   [4]  00 00 00 06
16:11:42.342548 can0  RX B E  08002507   [3]  01 00 3D
16:11:42.351115 can0  TX - -  0C000786   [8]  03 00 00 06 00 00 00 00
16:11:42.374548 can0  RX - E  08002507   [3]  01 00 3E
16:11:42.406545 can0  RX - E  08002507   [3]  01 00 3F
16:11:42.411797 can0  TX - -  00080300   [6]  00 00 40 05 01 F0
16:11:42.417426 can0  RX - -  0009533C   [6]  00 00 40 05 01 F0
16:11:42.427130 can0  RX - E  0C000783   [4]  00 00 00 02
16:11:42.438536 can0  RX - E  08002507   [3]  01 00 40
16:11:42.440704 can0  RX B E  0C000785   [4]  00 00 00 04
16:11:42.462141 can0  TX - -  18002502   [3]  01 00 3E
16:11:42.470538 can0  RX - E  08002507   [3]  01 00 41
16:11:42.471884 can0  TX - -  18002504   [3]  01 00 3E
16:11:42.474175 can0  TX - -  0C000782   [8]  03 00 00 02 00 00 00 00
16:11:42.476384 can0  TX - -  0C000784   [8]  03 00 00 04 00 00 00 00
16:11:42.534534 can0  RX - -  08002507   [3]  01 00 42
16:11:42.566533 can0  RX - E  08002507   [3]  01 00 43
16:11:42.598534 can0  RX - E  08002507   [3]  01 00 44
16:11:42.606611 can0  RX - E  0C000787   [4]  00 00 00 06
16:11:42.629501 can0  TX - -  0C000786   [8]  03 00 00 06 00 00 00 00
16:11:42.630678 can0  RX - E  08002507   [3]  01 00 45
16:11:42.662392 can0  TX - -  00080300   [6]  00 00 40 05 02 28
16:11:42.664433 can0  RX B E  0009533C   [6]  00 00 40 05 02 28
16:11:42.668734 can0  TX - -  18002502   [3]  01 00 45
16:11:42.704058 can0  TX - -  18002504   [3]  01 00 45
16:11:42.790531 can0  RX B E  08002507   [3]  01 00 46
16:11:42.854525 can0  RX - -  08002507   [3]  01 00 47
16:11:42.886618 can0  RX - E  0C000787   [4]  00 00 00 06
16:11:42.887595 can0  RX - E  08002507   [3]  01 00 48
16:11:42.902371 can0  TX - -  0C000786   [8]  03 00 00 06 00 00 00 00
16:11:42.912836 can0  TX - -  00080300   [6]  00 00 40 05 02 38
16:11:42.917417 can0  RX - -  0009533C   [6]  00 00 40 05 02 38
16:11:42.918545 can0  RX - E  08002507   [3]  01 00 4A
16:11:42.919480 can0  TX - -  18002502   [3]  01 00 47
16:11:42.921753 can0  TX - -  18002504   [3]  01 00 47
16:11:42.950524 can0  RX - E  08002507   [3]  01 00 4B
16:11:42.982525 can0  RX - E  08002507   [3]  01 00 4C
16:11:43.017233 can0  RX - -  08002507   [3]  01 00 4D
16:11:43.046524 can0  RX - E  08002507   [3]  01 00 4E
16:11:43.142521 can0  RX - -  08002507   [3]  01 00 4F
16:11:43.158598 can0  RX - E  0C000787   [4]  00 00 00 06
16:11:43.163629 can0  TX - -  00080300   [6]  00 00 40 05 02 78
16:11:43.165551 can0  RX - -  0009533C   [6]  00 00 40 05 02 78
16:11:43.171182 can0  TX - -  0C000786   [8]  03 00 00 06 00 00 00 00
16:11:43.174551 can0  RX - -  08002507   [3]  01 00 50
16:11:43.175284 can0  RX - -  0C000783   [4]  00 00 00 02
16:11:43.176721 can0  RX B E  0C000785   [4]  00 00 00 04
16:11:43.178554 can0  TX - -  18002502   [3]  01 00 4F
16:11:43.181636 can0  TX - -  18002504   [3]  01 00 4F
16:11:43.197434 can0  TX - -  0C000782   [8]  03 00 00 02 00 00 00 00
16:11:43.206528 can0  RX - E  08002507   [3]  01 00 51
16:11:43.208003 can0  TX - -  0C000784   [8]  03 00 00 04 00 00 00 00
16:11:43.238519 can0  RX - -  08002507   [3]  01 00 52
16:11:43.417331 can0  TX - -  00080300   [6]  00 00 40 05 02 90
16:11:43.419352 can0  RX - -  0009533C   [6]  00 00 40 05 02 90
16:11:43.425297 can0  TX - -  18002502   [3]  01 00 52
16:11:43.426854 can0  RX - -  0C000787   [4]  00 00 00 06
16:11:43.428826 can0  TX - -  18002504   [3]  01 00 52
16:11:43.463925 can0  TX - -  0C000786   [8]  03 00 00 06 00 00 00 00
16:11:43.679146 can0  RX - -  0C000783   [4]  00 00 00 02
16:11:43.684661 can0  RX - E  0C000785   [4]  00 00 00 04
16:11:43.686517 can0  RX - E  08002507   [3]  01 00 53
16:11:43.692883 can0  TX - -  0C000782   [8]  03 00 00 02 00 00 00 00
16:11:43.717289 can0  TX - -  0C000784   [8]  03 00 00 04 00 00 00 00
16:11:43.718608 can0  RX - -  0C000787   [4]  00 00 00 06
16:11:43.719258 can0  RX - -  08002507   [3]  01 00 54
16:11:43.721190 can0  TX - -  00080300   [6]  00 00 40 05 02 98
16:11:43.723186 can0  RX - -  0009533C   [6]  00 00 40 05 02 98
16:11:43.734733 can0  TX - -  0C000786   [8]  03 00 00 06 00 00 00 00
16:11:43.744821 can0  TX - -  18002502   [3]  01 00 53
16:11:43.750503 can0  RX - E  08002507   [3]  01 00 55
16:11:43.751054 can0  TX - -  18002504   [3]  01 00 53
16:11:43.817222 can0  RX - -  08002507   [3]  01 00 56
16:11:43.846510 can0  RX - E  08002507   [3]  01 00 57
16:11:43.878513 can0  RX - E  08002507   [3]  01 00 58
16:11:43.910503 can0  RX - E  08002507   [3]  01 00 59
16:11:43.942507 can0  RX - -  08002507   [3]  01 00 5A
16:11:43.964669 can0  TX - -  00080300   [6]  00 00 40 05 02 D0
16:11:43.966715 can0  RX - -  0009533C   [6]  00 00 40 05 02 D0
16:11:43.971007 can0  TX - -  18002502   [3]  01 00 5A
16:11:43.974512 can0  RX - -  08002507   [3]  01 00 5B
16:11:43.975522 can0  TX - -  18002504   [3]  01 00 5A
16:11:43.990578 can0  RX - E  0C000787   [4]  00 00 00 06
16:11:44.006500 can0  RX - E  08002507   [3]  01 00 5C
16:11:44.012435 can0  TX - -  0C000786   [8]  03 00 00 06 00 00 00 00
16:11:44.038500 can0  RX - -  08002507   [3]  01 00 5D
16:11:44.070501 can0  RX - E  08002507   [3]  01 00 5E
16:11:44.134505 can0  RX - -  08002507   [3]  01 00 60
16:11:44.166494 can0  RX - E  08002507   [3]  01 00 61
16:11:44.217327 can0  TX - -  00080300   [6]  00 00 40 05 03 08
16:11:44.219393 can0  RX B E  0009533C   [6]  00 00 40 05 03 08
16:11:44.227152 can0  RX - E  0C000783   [4]  00 00 00 02
16:11:44.229108 can0  TX - -  18002502   [3]  01 00 61
16:11:44.230604 can0  RX B E  08002507   [3]  01 00 63
16:11:44.231323 can0  TX - -  18002504   [3]  01 00 61
16:11:44.232922 can0  RX - -  0C000785   [4]  00 00 00 04
16:11:44.246767 can0  TX - -  0C000782   [8]  03 00 00 02 00 00 00 00
16:11:44.256913 can0  TX - -  0C000784   [8]  03 00 00 04 00 00 00 00
16:11:44.262509 can0  RX - E  08002507   [3]  01 00 65
16:11:44.266573 can0  RX - E  0C000787   [4]  00 00 00 06
16:11:44.294495 can0  RX - E  08002507   [3]  01 00 67
16:11:44.317958 can0  TX - -  0C000786   [8]  03 00 00 06 00 00 00 00
16:11:44.326491 can0  RX - E  08002507   [3]  01 00 68
16:11:44.358492 can0  RX - E  08002507   [3]  01 00 6A
16:11:44.390494 can0  RX - E  08002507   [3]  01 00 6C
16:11:44.422488 can0  RX - -  08002507   [3]  01 00 6E
16:11:44.454491 can0  RX - E  08002507   [3]  01 00 70
16:11:44.465548 can0  TX - -  00080300   [6]  00 00 40 05 03 70
16:11:44.467556 can0  RX - -  0009533C   [6]  00 00 40 05 03 70
16:11:44.476046 can0  TX - -  18002502   [3]  01 00 6E
16:11:44.486494 can0  RX - E  08002507   [3]  01 00 72
16:11:44.488020 can0  TX - -  18002504   [3]  01 00 6E
16:11:44.518496 can0  RX - -  08002507   [3]  01 00 75
16:11:44.550493 can0  RX B E  08002507   [3]  01 00 77
16:11:44.574565 can0  RX - E  0C000787   [4]  00 00 00 06
16:11:44.582484 can0  RX - -  08002507   [3]  01 00 79
16:11:44.587177 can0  TX - -  0C000786   [8]  03 00 00 06 00 00 00 00
16:11:44.617250 can0  RX - -  08002507   [3]  01 00 7C
16:11:44.646493 can0  RX - E  08002507   [3]  01 00 7E
16:11:44.678496 can0  RX - E  08002507   [3]  01 00 7F
16:11:44.717361 can0  TX - -  00080300   [6]  00 00 40 05 03 F8
16:11:44.719391 can0  RX - -  0009533C   [6]  00 00 40 05 03 F8
16:11:44.721761 can0  TX - -  18002502   [3]  01 00 7F
16:11:44.744651 can0  RX - -  0C000785   [4]  00 00 00 04
16:11:44.746173 can0  TX - -  18002504   [3]  01 00 7F
16:11:44.774492 can0  RX - E  08002507   [3]  01 00 7E
16:11:44.776021 can0  TX - -  0C000784   [8]  03 00 00 04 00 00 00 00
16:11:44.806486 can0  RX - -  08002507   [3]  01 00 7F
16:11:44.842559 can0  RX - -  0C000787   [4]  00 00 00 06
16:11:44.860259 can0  TX - -  0C000786   [8]  03 00 00 06 00 00 00 00
16:11:44.966648 can0  TX - -  00080300   [6]  00 00 40 05 03 F8
16:11:44.968674 can0  RX - -  0009533C   [6]  00 00 40 05 03 F8
16:11:44.979158 can0  RX - -  0C000783   [4]  00 00 00 02
16:11:44.980165 can0  TX - -  18002502   [3]  01 00 7F
16:11:44.983873 can0  TX - -  18002504   [3]  01 00 7F
16:11:45.024061 can0  TX - -  0C000782   [8]  03 00 00 02 00 00 00 00
16:11:45.117236 can0  RX - -  0C000787   [4]  00 00 00 06
16:11:45.123987 can0  TX - -  0C000786   [8]  03 00 00 06 00 00 00 00
16:11:45.240626 can0  RX - -  0C000785   [4]  00 00 00 04
16:11:45.256961 can0  TX - -  0C000784   [8]  03 00 00 04 00 00 00 00
16:11:45.279167 can0  RX - -  0C000783   [4]  00 00 00 02
16:11:45.297025 can0  TX - -  0C000782   [8]  03 00 00 02 00 00 00 00
16:11:45.318481 can0  RX - -  08002507   [3]  01 00 7E
16:11:45.337702 can0  TX - -  00080300   [6]  00 00 40 05 03 F0
16:11:45.339719 can0  RX - -  0009533C   [6]  00 00 40 05 03 F0
16:11:45.349836 can0  TX - -  18002502   [3]  01 00 7E
16:11:45.378546 can0  RX - E  0C000787   [4]  00 00 00 06
16:11:45.379993 can0  TX - -  18002504   [3]  01 00 7E
16:11:45.417496 can0  TX - -  0C000786   [8]  03 00 00 06 00 00 00 00
16:11:45.607168 can0  RX - -  0C000783   [4]  00 00 00 02
16:11:45.623626 can0  TX - -  0C000782   [8]  03 00 00 02 00 00 00 00
16:11:45.636618 can0  RX - -  0C000785   [4]  00 00 00 04
16:11:45.656646 can0  TX - -  0C000784   [8]  03 00 00 04 00 00 00 00
16:11:45.674542 can0  RX - E  0C000787   [4]  00 00 00 06
16:11:45.678457 can0  TX - -  0C000786   [8]  03 00 00 06 00 00 00 00
16:11:45.862462 can0  RX - -  08002507   [3]  01 00 7D
16:11:45.877810 can0  TX - -  00080300   [6]  00 00 40 05 03 E8
16:11:45.879654 can0  RX B E  0C000783   [4]  00 00 00 02
16:11:45.880445 can0  RX B E  0009533C   [6]  00 00 40 05 03 E8
16:11:45.888437 can0  TX - -  0C000782   [8]  03 00 00 02 00 00 00 00
16:11:45.894141 can0  TX - -  18002502   [3]  01 00 7D
16:11:45.894859 can0  RX - -  08002507   [3]  01 00 7A
16:11:45.896828 can0  TX - -  18002504   [3]  01 00 7D
16:11:45.926463 can0  RX - -  08002507   [3]  01 00 78
16:11:45.934536 can0  RX - E  0C000787   [4]  00 00 00 06
16:11:45.958454 can0  RX - E  08002507   [3]  01 00 76
16:11:45.985275 can0  TX - -  0C000786   [8]  03 00 00 06 00 00 00 00
16:11:45.990483 can0  RX - E  08002507   [3]  01 00 74
16:11:46.022455 can0  RX - -  08002507   [3]  01 00 71
16:11:46.054457 can0  RX - E  08002507   [3]  01 00 6F
16:11:46.086455 can0  RX - E  08002507   [3]  01 00 6D
16:11:46.118468 can0  RX - -  08002507   [3]  01 00 6C
16:11:46.128202 can0  TX - -  00080300   [6]  00 00 40 05 03 68
16:11:46.130246 can0  RX B E  0009533C   [6]  00 00 40 05 03 68
16:11:46.144936 can0  TX - -  18002502   [3]  01 00 6D
16:11:46.150462 can0  RX - E  08002507   [3]  01 00 6A
16:11:46.151554 can0  TX - -  18002504   [3]  01 00 6D
16:11:46.152615 can0  RX B -  0C000785   [4]  00 00 00 04
16:11:46.166158 can0  TX - -  0C000784   [8]  03 00 00 04 00 00 00 00
16:11:46.182456 can0  RX - E  08002507   [3]  01 00 69
16:11:46.217250 can0  RX - -  08002507   [3]  01 00 73
16:11:46.242536 can0  RX - E  0C000787   [4]  00 00 00 06
16:11:46.246456 can0  RX B E  08002507   [3]  01 00 75
16:11:46.253382 can0  TX - -  0C000786   [8]  03 00 00 06 00 00 00 00
16:11:46.278456 can0  RX B E  08002507   [3]  01 00 77
16:11:46.310446 can0  RX - E  08002507   [3]  01 00 76
16:11:46.342458 can0  RX - -  08002507   [3]  01 00 75
16:11:46.374445 can0  RX B E  08002507   [3]  01 00 73
16:11:46.378724 can0  TX - -  00080300   [6]  00 00 40 05 03 A8
16:11:46.380768 can0  RX B E  0009533C   [6]  00 00 40 05 03 A8
16:11:46.388517 can0  TX - -  18002502   [3]  01 00 75
16:11:46.406444 can0  RX - E  08002507   [3]  01 00 71
16:11:46.407554 can0  TX - -  18002504   [3]  01 00 75
16:11:46.438446 can0  RX - -  08002507   [3]  01 00 6F
16:11:46.470443 can0  RX B E  08002507   [3]  01 00 6D
16:11:46.502454 can0  RX - E  08002507   [3]  01 00 6A
16:11:46.510523 can0  RX B E  0C000787   [4]  00 00 00 06
16:11:46.526252 can0  TX - -  0C000786   [8]  03 00 00 06 00 00 00 00
16:11:46.534442 can0  RX - E  08002507   [3]  01 00 68
16:11:46.566441 can0  RX - E  08002507   [3]  01 00 66
16:11:46.598447 can0  RX - -  08002507   [3]  01 00 65
16:11:46.629341 can0  TX - -  00080300   [6]  00 00 40 05 03 28
16:11:46.630442 can0  RX - -  08002507   [3]  01 00 63
16:11:46.631923 can0  RX B -  0009533C   [6]  00 00 40 05 03 28
16:11:46.643182 can0  RX - -  0C000783   [4]  00 00 00 02
16:11:46.662440 can0  RX - E  08002507   [3]  01 00 61
16:11:46.664602 can0  RX - E  0C000785   [4]  00 00 00 04
16:11:46.676919 can0  TX - -  18002502   [3]  01 00 65
16:11:46.694445 can0  RX - E  08002507   [3]  01 00 5F
16:11:46.695485 can0  TX - -  18002504   [3]  01 00 65
16:11:46.697696 can0  TX - -  0C000782   [8]  03 00 00 02 00 00 00 00
16:11:46.699903 can0  TX - -  0C000784   [8]  03 00 00 04 00 00 00 00
16:11:46.726439 can0  RX - -  08002507   [3]  01 00 5E
16:11:46.758438 can0  RX B E  08002507   [3]  01 00 5C
16:11:46.782515 can0  RX - E  0C000787   [4]  00 00 00 06
16:11:46.790448 can0  RX - -  08002507   [3]  01 00 5A
16:11:46.796632 can0  TX - -  0C000786   [8]  03 00 00 06 00 00 00 00
16:11:46.822444 can0  RX - -  08002507   [3]  01 00 58
16:11:46.854449 can0  RX - E  08002507   [3]  01 00 56
16:11:46.882172 can0  TX - -  00080300   [6]  00 00 40 05 02 B0
16:11:46.884227 can0  RX - -  0009533C   [6]  00 00 40 05 02 B0
16:11:46.893792 can0  TX - -  18002502   [3]  01 00 56
16:11:46.918433 can0  RX - -  08002507   [3]  01 00 55
16:11:46.919472 can0  TX - -  18002504   [3]  01 00 56
16:11:46.950432 can0  RX - E  08002507   [3]  01 00 53
16:11:46.982432 can0  RX - E  08002507   [3]  01 00 52
16:11:47.017237 can0  RX - -  08002507   [3]  01 00 51
16:11:47.046430 can0  RX - E  08002507   [3]  01 00 4F
16:11:47.054507 can0  RX B E  0C000787   [4]  00 00 00 06
16:11:47.078313 can0  TX - -  0C000786   [8]  03 00 00 06 00 00 00 00
16:11:47.078452 can0  RX - E  08002507   [3]  01 00 4D
16:11:47.110431 can0  RX - E  08002507   [3]  01 00 4B
16:11:47.132676 can0  TX - -  00080300   [6]  00 00 40 05 02 68
16:11:47.134719 can0  RX B E  0009533C   [6]  00 00 40 05 02 68
16:11:47.140927 can0  TX - -  18002502   [3]  01 00 4D
16:11:47.142438 can0  RX B E  08002507   [3]  01 00 4A
16:11:47.144003 can0  TX - -  18002504   [3]  01 00 4D
16:11:47.174425 can0  RX - E  08002507   [3]  01 00 48
16:11:47.206438 can0  RX - E  08002507   [3]  01 00 46
16:11:47.238425 can0  RX - -  08002507   [3]  01 00 45
16:11:47.270424 can0  RX - E  08002507   [3]  01 00 43
16:11:47.302422 can0  RX - -  08002507   [3]  01 00 42
16:11:47.334504 can0  RX - -  0C000787   [4]  00 00 00 06
16:11:47.345702 can0  TX - -  0C000786   [8]  03 00 00 06 00 00 00 00
16:11:47.383339 can0  TX - -  00080300   [6]  00 00 40 05 02 10
16:11:47.385349 can0  RX - -  0009533C   [6]  00 00 40 05 02 10
16:11:47.388007 can0  TX - -  18002502   [3]  01 00 42
16:11:47.400571 can0  RX B E  0C000785   [4]  00 00 00 04
16:11:47.401215 can0  TX - -  18002504   [3]  01 00 42
16:11:47.434033 can0  TX - -  0C000784   [8]  03 00 00 04 00 00 00 00
16:11:47.602495 can0  RX - -  0C000787   [4]  00 00 00 06
16:11:47.610811 can0  TX - -  0C000786   [8]  03 00 00 06 00 00 00 00
16:11:47.643194 can0  RX - -  0C000783   [4]  00 00 00 02
16:11:47.650844 can0  TX - -  0C000782   [8]  03 00 00 02 00 00 00 00
16:11:47.688567 can0  RX - E  0C000785   [4]  00 00 00 04
16:11:47.703914 can0  TX - -  0C000784   [8]  03 00 00 04 00 00 00 00
16:11:47.866492 can0  RX - -  0C000787   [4]  00 00 00 06
16:11:47.878623 can0  TX - -  0C000786   [8]  03 00 00 06 00 00 00 00
16:11:47.907193 can0  RX - E  0C000783   [4]  00 00 00 02
16:11:47.920233 can0  TX - -  0C000782   [8]  03 00 00 02 00 00 00 00
16:11:47.960562 can0  RX - E  0C000785   [4]  00 00 00 04
16:11:47.975054 can0  TX - -  0C000784   [8]  03 00 00 04 00 00 00 00
16:11:48.134484 can0  RX - -  0C000787   [4]  00 00 00 06
16:11:48.145465 can0  TX - -  0C000786   [8]  03 00 00 06 00 00 00 00
16:11:48.175197 can0  RX - E  0C000783   [4]  00 00 00 02
16:11:48.189633 can0  TX - -  0C000782   [8]  03 00 00 02 00 00 00 00
16:11:48.232553 can0  RX - -  0C000785   [4]  00 00 00 04
16:11:48.252272 can0  TX - -  0C000784   [8]  03 00 00 04 00 00 00 00
16:11:48.402479 can0  RX - -  0C000787   [4]  00 00 00 06
16:11:48.409702 can0  TX - -  0C000786   [8]  03 00 00 06 00 00 00 00
16:11:48.447202 can0  RX - -  0C000783   [4]  00 00 00 02
16:11:48.460975 can0  TX - -  0C000782   [8]  03 00 00 02 00 00 00 00
16:11:48.508545 can0  RX - E  0C000785   [4]  00 00 00 04
16:11:48.521688 can0  TX - -  0C000784   [8]  03 00 00 04 00 00 00 00
16:11:48.666472 can0  RX - -  0C000787   [4]  00 00 00 06
16:11:48.681017 can0  TX - -  0C000786   [8]  03 00 00 06 00 00 00 00
16:11:48.717244 can0  RX - -  0C000783   [4]  00 00 00 02
16:11:48.733362 can0  TX - -  0C000782   [8]  03 00 00 02 00 00 00 00
16:11:48.776542 can0  RX B E  0C000785   [4]  00 00 00 04
16:11:48.787328 can0  TX - -  0C000784   [8]  03 00 00 04 00 00 00 00
16:11:48.938467 can0  RX - -  0C000787   [4]  00 00 00 06
16:11:48.945159 can0  TX - -  0C000786   [8]  03 00 00 06 00 00 00 00
16:11:48.991205 can0  RX B E  0C000783   [4]  00 00 00 02
16:11:48.996111 can0  TX - -  0C000782   [8]  03 00 00 02 00 00 00 00
16:11:49.044533 can0  RX - -  0C000785   [4]  00 00 00 04
16:11:49.046070 can0  TX - -  0C000784   [8]  03 00 00 04 00 00 00 00
16:11:49.202459 can0  RX - -  0C000787   [4]  00 00 00 06
16:11:49.212279 can0  TX - -  0C000786   [8]  03 00 00 06 00 00 00 00
16:11:49.251211 can0  RX - -  0C000783   [4]  00 00 00 02
16:11:49.267740 can0  TX - -  0C000782   [8]  03 00 00 02 00 00 00 00
16:11:49.300527 can0  RX - E  0C000785   [4]  00 00 00 04
16:11:49.310044 can0  TX - -  0C000784   [8]  03 00 00 04 00 00 00 00
16:11:49.466452 can0  RX - -  0C000787   [4]  00 00 00 06
16:11:49.480667 can0  TX - -  0C000786   [8]  03 00 00 06 00 00 00 00
16:11:49.523215 can0  RX - -  0C000783   [4]  00 00 00 02
16:11:49.533666 can0  TX - -  0C000782   [8]  03 00 00 02 00 00 00 00
16:11:49.564521 can0  RX - E  0C000785   [4]  00 00 00 04
16:11:49.576836 can0  TX - -  0C000784   [8]  03 00 00 04 00 00 00 00
16:11:49.738446 can0  RX - -  0C000787   [4]  00 00 00 06
16:11:49.754700 can0  TX - -  0C000786   [8]  03 00 00 06 00 00 00 00
16:11:49.791215 can0  RX - -  0C000783   [4]  00 00 00 02
16:11:49.807062 can0  TX - -  0C000782   [8]  03 00 00 02 00 00 00 00
16:11:49.832515 can0  RX - -  0C000785   [4]  00 00 00 04
16:11:49.847003 can0  TX - -  0C000784   [8]  03 00 00 04 00 00 00 00
16:11:50.010445 can0  RX - -  0C000787   [4]  00 00 00 06
